(1611458234.667468) can0 09F200EC#00000000007FFFFF
(1611458234.697797) can0 1DF01104#E8033D0100000000
(1611458234.698376) can0 1DF20D04#040040FFFFFFFFFF
(1611458234.698944) can0 1DFDA404#045551FFFFFFFFFF
(1611458234.747504) can0 09F201EC#201A002800FFFF1F
(1611458234.747999) can0 09F201EC#2172CE04000060D8
(1611458234.748581) can0 09F201EC#220300FFFFFFFFFF
(1611458234.749185) can0 09F201EC#23000000007EFFFF
(1611458234.767442) can0 09F200EC#00000000007FFFFF
(1611458234.847418) can0 15F209EC#800900B700FF7FFF
(1611458234.847994) can0 15F209EC#817FFF7FFFFFFFFF
(1611458234.867433) can0 09F200EC#00000000007FFFFF
(1611458234.891086) can0 1DFD0906#066A065B00000000
(1611458234.891644) can0 1DFD0806#066A06C700000000
(1611458234.895636) can0 1DF21C04#0404000000000000
(1611458234.911881) can0 1DFD0901#0165014C00000000
(1611458234.912441) can0 1DFD0801#016501E500000000
(1611458234.967431) can0 09F200EC#00000000007FFFFF
(1611458235.067427) can0 09F200EC#00000000007FFFFF
(1611458235.167426) can0 09F200EC#00000000007FFFFF
(1611458235.196254) can0 1DF21C04#0405000000000000
(1611458235.247399) can0 09F201EC#401A002800FFFF1F
(1611458235.247948) can0 09F201EC#4172CE04000060D8
(1611458235.248519) can0 09F201EC#420300FFFFFFFFFF
(1611458235.249097) can0 09F201EC#43000000007EFFFF
(1611458235.267415) can0 09F200EC#00000000007FFFFF
(1611458235.367397) can0 09F200EC#00000000007FFFFF
(1611458235.467388) can0 09F200EC#00000000007FFFFF
(1611458235.489223) can0 1DF20D01#0151400000000000
(1611458235.489789) can0 1DF01100#E803410100000000
(1611458235.490362) can0 1DF01101#E803410100000000
(1611458235.490941) can0 1DF20D00#0015500000000000
(1611458235.496856) can0 1DF21C04#0406000000000000
(1611458235.567398) can0 09F200EC#00000000007FFFFF
(1611458235.667384) can0 09F200EC#00000000007FFFFF
(1611458235.699845) can0 1DF01104#E8033E0100000000
(1611458235.700425) can0 1DF20D04#040040FFFFFFFFFF
(1611458235.700995) can0 1DFDA404#045551FFFFFFFFFF
(1611458235.747376) can0 09F201EC#601A002800FFFF1F
(1611458235.747921) can0 09F201EC#6172CE04000060D8
(1611458235.748494) can0 09F201EC#620300FFFFFFFFFF
(1611458235.749101) can0 09F201EC#63000000007EFFFF
(1611458235.767374) can0 09F200EC#00000000007FFFFF
(1611458235.797481) can0 1DF21C04#0407000000000000
(1611458235.847344) can0 15F209EC#A00900B700FF7FFF
(1611458235.847914) can0 15F209EC#A17FFF7FFFFFFFFF
(1611458235.867375) can0 09F200EC#00000000007FFFFF
(1611458235.967369) can0 09F200EC#00000000007FFFFF
(1611458235.993313) can0 1DFD0906#066A065B00000000
(1611458235.993873) can0 1DFD0806#066A06C700000000
(1611458236.014108) can0 1DFD0901#0165014C00000000
(1611458236.014710) can0 1DFD0801#016501E500000000
(1611458236.067363) can0 09F200EC#00000000007FFFFF
(1611458236.098109) can0 1DF21C04#0400000000000000
(1611458236.167351) can0 09F200EC#00000000007FFFFF
(1611458236.247326) can0 09F201EC#801A002800FFFF1F
(1611458236.247883) can0 09F201EC#8172CE04000060D8
(1611458236.248473) can0 09F201EC#820300FFFFFFFFFF
(1611458236.249042) can0 09F201EC#83000000007EFFFF
(1611458236.267333) can0 09F200EC#00000000007FFFFF
(1611458236.367330) can0 09F200EC#00000000007FFFFF
(1611458236.398728) can0 1DF21C04#0401000000000000
(1611458236.467323) can0 09F200EC#00000000007FFFFF
(1611458236.491277) can0 1DF20D01#0151400000000000
(1611458236.491830) can0 1DF01100#E803420100000000
(1611458236.492422) can0 1DF01101#E803420100000000
(1611458236.492977) can0 1DF20D00#0015500000000000
(1611458236.567323) can0 09F200EC#00000000007FFFFF
(1611458236.667328) can0 09F200EC#00000000007FFFFF
(1611458236.701958) can0 1DF01104#E8033F0100000000
(1611458236.702472) can0 1DF20D04#040040FFFFFFFFFF
(1611458236.703067) can0 1DF21C04#0402000000000000
(1611458236.703627) can0 1DFDA404#045551FFFFFFFFFF
(1611458236.747288) can0 09F201EC#A01A002800FFFF1F
(1611458236.747839) can0 09F201EC#A172CE04000060D8
(1611458236.748406) can0 09F201EC#A20300FFFFFFFFFF
(1611458236.749006) can0 09F201EC#A3000000007EFFFF
(1611458236.767301) can0 09F200EC#00000000007FFFFF
(1611458236.847277) can0 15F209EC#C00900B700FF7FFF
(1611458236.847848) can0 15F209EC#C17FFF7FFFFFFFFF
(1611458236.867306) can0 09F200EC#00000000007FFFFF
(1611458236.967306) can0 09F200EC#00000000007FFFFF
(1611458236.999937) can0 1DF21C04#0403000000000000
(1611458237.067288) can0 09F200EC#00000000007FFFFF
(1611458237.095564) can0 1DFD0906#066A065B00000000
(1611458237.096116) can0 1DFD0806#066A06C700000000
(1611458237.116330) can0 1DFD0901#0165014C00000000
(1611458237.116896) can0 1DFD0801#016501E500000000
(1611458237.167279) can0 09F200EC#00000000007FFFFF
(1611458237.247269) can0 09F201EC#C01A002800FFFF1F
(1611458237.247807) can0 09F201EC#C172CE04000060D8
(1611458237.248387) can0 09F201EC#C20300FFFFFFFFFF
(1611458237.248969) can0 09F201EC#C3000000007EFFFF
(1611458237.267270) can0 09F200EC#00000000007FFFFF
(1611458237.300568) can0 1DF21C04#0404000000000000
(1611458237.367261) can0 09F200EC#00000000007FFFFF
(1611458237.467251) can0 09F200EC#00000000007FFFFF
(1611458237.493253) can0 1DF20D01#0151400000000000
(1611458237.493828) can0 1DF01100#E803430100000000
(1611458237.494397) can0 1DF01101#E803430100000000
(1611458237.494981) can0 1DF20D00#0015500000000000
(1611458237.567249) can0 09F200EC#00000000007FFFFF
(1611458237.601171) can0 1DF21C04#0405000000000000
(1611458237.667252) can0 09F200EC#00000000007FFFFF
(1611458237.703945) can0 1DF01104#E803400100000000
(1611458237.704547) can0 1DF20D04#040040FFFFFFFFFF
(1611458237.705092) can0 1DFDA404#045551FFFFFFFFFF
(1611458237.747293) can0 09F201EC#E01A002800FFFF1F
(1611458237.747775) can0 09F201EC#E172CE04000060D8
(1611458237.748346) can0 09F201EC#E20300FFFFFFFFFF
(1611458237.748935) can0 09F201EC#E3000000007EFFFF
(1611458237.767220) can0 09F200EC#00000000007FFFFF
(1611458237.847201) can0 15F209EC#E00900B700FF7FFF
(1611458237.847776) can0 15F209EC#E17FFF7FFFFFFFFF
(1611458237.867219) can0 09F200EC#00000000007FFFFF
(1611458237.901793) can0 1DF21C04#0406000000000000
(1611458237.967223) can0 09F200EC#00000000007FFFFF
(1611458238.067213) can0 09F200EC#00000000007FFFFF
(1611458238.167214) can0 09F200EC#00000000007FFFFF
(1611458238.197779) can0 1DFD0906#066A065B00000000
(1611458238.198334) can0 1DFD0806#066A06C700000000
(1611458238.202400) can0 1DF21C04#0407000000000000
(1611458238.218568) can0 1DFD0901#0165014C00000000
(1611458238.219129) can0 1DFD0801#016501E500000000
(1611458238.247182) can0 09F201EC#001A002800FFFF1F
(1611458238.247740) can0 09F201EC#0172CE04000060D8
(1611458238.248325) can0 09F201EC#020300FFFFFFFFFF
(1611458238.248908) can0 09F201EC#03000000007EFFFF
(1611458238.267193) can0 09F200EC#00000000007FFFFF
(1611458238.367203) can0 09F200EC#00000000007FFFFF
(1611458238.467185) can0 09F200EC#00000000007FFFFF
(1611458238.495343) can0 1DF20D01#0151400000000000
(1611458238.495878) can0 1DF01100#E803440100000000
(1611458238.496449) can0 1DF01101#E803440100000000
(1611458238.497031) can0 1DF20D00#0015500000000000
(1611458238.503018) can0 1DF21C04#0400000000000000
(1611458238.567181) can0 09F200EC#00000000007FFFFF
(1611458238.668296) can0 09F200EC#00000000007FFFFF
(1611458238.705990) can0 1DF01104#E803410100000000
(1611458238.706569) can0 1DF20D04#040040FFFFFFFFFF
(1611458238.707139) can0 1DFDA404#045551FFFFFFFFFF
(1611458238.747252) can0 09F201EC#201A002800FFFF1F
(1611458238.747710) can0 09F201EC#2172CE04000060D8
(1611458238.748296) can0 09F201EC#220300FFFFFFFFFF
(1611458238.748900) can0 09F201EC#23000000007EFFFF
(1611458238.767156) can0 09F200EC#00000000007FFFFF
(1611458238.803639) can0 1DF21C04#0401000000000000
(1611458238.847153) can0 15F209EC#000900B700FF7FFF
(1611458238.847728) can0 15F209EC#017FFF7FFFFFFFFF
(1611458238.867152) can0 09F200EC#00000000007FFFFF
(1611458238.967176) can0 09F200EC#00000000007FFFFF
(1611458239.067146) can0 09F200EC#00000000007FFFFF
(1611458239.104239) can0 1DF21C04#0402000000000000
(1611458239.167134) can0 09F200EC#00000000007FFFFF
(1611458239.247107) can0 09F201EC#401A002800FFFF1F
(1611458239.247662) can0 09F201EC#4172CE04000060D8
(1611458239.248235) can0 09F201EC#420300FFFFFFFFFF
(1611458239.248812) can0 09F201EC#43000000007EFFFF
(1611458239.267121) can0 09F200EC#00000000007FFFFF
(1611458239.300012) can0 1DFD0906#066A065B00000000
(1611458239.300568) can0 1DFD0806#066A06C700000000
(1611458239.320804) can0 1DFD0901#0165014C00000000
(1611458239.321369) can0 1DFD0801#016501E500000000
(1611458239.367120) can0 09F200EC#00000000007FFFFF
(1611458239.404867) can0 1DF21C04#0403000000000000
(1611458239.467129) can0 09F200EC#00000000007FFFFF
(1611458239.497341) can0 1DF20D01#0151400000000000
(1611458239.497906) can0 1DF01100#E803450100000000
(1611458239.498470) can0 1DF01101#E803450100000000
(1611458239.499053) can0 1DF20D00#0015500000000000
(1611458239.567117) can0 09F200EC#00000000007FFFFF
(1611458239.667097) can0 09F200EC#00000000007FFFFF
(1611458239.708044) can0 1DF01104#E803420100000000
(1611458239.708621) can0 1DF20D04#040040FFFFFFFFFF
(1611458239.709196) can0 1DF21C04#0404000000000000
(1611458239.709776) can0 1DFDA404#045551FFFFFFFFFF
(1611458239.747081) can0 09F201EC#601A002800FFFF1F
(1611458239.747629) can0 09F201EC#6172CE04000060D8
(1611458239.748201) can0 09F201EC#620300FFFFFFFFFF
(1611458239.748817) can0 09F201EC#63000000007EFFFF
(1611458239.767090) can0 09F200EC#00000000007FFFFF
(1611458239.847060) can0 15F209EC#200900B700FF7FFF
(1611458239.847636) can0 15F209EC#217FFF7FFFFFFFFF
(1611458239.867095) can0 09F200EC#00000000007FFFFF
(1611458239.967078) can0 09F200EC#00000000007FFFFF
(1611458240.006093) can0 1DF21C04#0405000000000000
(1611458240.067087) can0 09F200EC#00000000007FFFFF
(1611458240.167063) can0 09F200EC#00000000007FFFFF
(1611458240.247038) can0 09F201EC#801A002800FFFF1F
(1611458240.247589) can0 09F201EC#8172CE04000060D8
(1611458240.248169) can0 09F201EC#820300FFFFFFFFFF
(1611458240.248747) can0 09F201EC#83000000007EFFFF
(1611458240.267054) can0 09F200EC#00000000007FFFFF
(1611458240.306716) can0 1DF21C04#0406000000000000
(1611458240.367042) can0 09F200EC#00000000007FFFFF
(1611458240.402250) can0 1DFD0906#066A065B00000000
(1611458240.402810) can0 1DFD0806#066A06C700000000
(1611458240.423046) can0 1DFD0901#0165014C00000000
(1611458240.423603) can0 1DFD0801#016501E500000000
(1611458240.467100) can0 09F200EC#00000000007FFFFF
(1611458240.499350) can0 1DF20D01#0151400000000000
(1611458240.499919) can0 1DF01100#E803460100000000
(1611458240.500481) can0 1DF01101#E803460100000000
(1611458240.501060) can0 1DF20D00#0015500000000000
(1611458240.567034) can0 09F200EC#00000000007FFFFF
(1611458240.607311) can0 1DF21C04#0407000000000000
(1611458240.667037) can0 09F200EC#00000000007FFFFF
(1611458240.710094) can0 1DF01104#E803430100000000
(1611458240.710668) can0 1DF20D04#040040FFFFFFFFFF
(1611458240.711238) can0 1DFDA404#045551FFFFFFFFFF
(1611458240.747000) can0 09F201EC#A01A002800FFFF1F
(1611458240.747552) can0 09F201EC#A172CE04000060D8
(1611458240.748119) can0 09F201EC#A20300FFFFFFFFFF
(1611458240.748720) can0 09F201EC#A3000000007EFFFF
(1611458240.767010) can0 09F200EC#00000000007FFFFF
(1611458240.846991) can0 15F209EC#400900B700FF7FFF
(1611458240.847562) can0 15F209EC#417FFF7FFFFFFFFF
(1611458240.867007) can0 09F200EC#00000000007FFFFF
(1611458240.907957) can0 1DF21C04#0400000000000000
(1611458240.966993) can0 09F200EC#00000000007FFFFF
(1611458241.067010) can0 09F200EC#00000000007FFFFF
(1611458241.166987) can0 09F200EC#00000000007FFFFF
(1611458241.208547) can0 1DF21C04#0401000000000000
(1611458241.246966) can0 09F201EC#C01A002800FFFF1F
(1611458241.247516) can0 09F201EC#C172CE04000060D8
(1611458241.248089) can0 09F201EC#C20300FFFFFFFFFF
(1611458241.248670) can0 09F201EC#C3000000007EFFFF
(1611458241.266990) can0 09F200EC#00000000007FFFFF
(1611458241.366993) can0 09F200EC#00000000007FFFFF
(1611458241.466958) can0 09F200EC#00000000007FFFFF
(1611458241.501393) can0 1DF20D01#0151400000000000
(1611458241.502037) can0 1DF01100#E803470100000000
(1611458241.502525) can0 1DF01101#E803470100000000
(1611458241.503111) can0 1DF20D00#0015500000000000
(1611458241.504478) can0 1DFD0906#066A065B00000000
(1611458241.505034) can0 1DFD0806#066A06C700000000
(1611458241.509174) can0 1DF21C04#0402000000000000
(1611458241.525276) can0 1DFD0901#0165014C00000000
(1611458241.525836) can0 1DFD0801#016501E500000000
(1611458241.566971) can0 09F200EC#00000000007FFFFF
(1611458241.666966) can0 09F200EC#00000000007FFFFF
(1611458241.712141) can0 1DF01104#E803440100000000
(1611458241.712730) can0 1DF20D04#040040FFFFFFFFFF
(1611458241.713298) can0 1DFDA404#045551FFFFFFFFFF
(1611458241.747139) can0 09F201EC#E01A002800FFFF1F
(1611458241.747476) can0 09F201EC#E172CE04000060D8
(1611458241.748043) can0 09F201EC#E20300FFFFFFFFFF
(1611458241.748651) can0 09F201EC#E3000000007EFFFF
(1611458241.766939) can0 09F200EC#00000000007FFFFF
(1611458241.809775) can0 1DF21C04#0403000000000000
(1611458241.846912) can0 15F209EC#600900B700FF7FFF
(1611458241.847488) can0 15F209EC#617FFF7FFFFFFFFF
(1611458241.866945) can0 09F200EC#00000000007FFFFF
(1611458241.966925) can0 09F200EC#00000000007FFFFF
(1611458242.066920) can0 09F200EC#00000000007FFFFF
(1611458242.110422) can0 1DF21C04#0404000000000000
(1611458242.166918) can0 09F200EC#00000000007FFFFF
(1611458242.246893) can0 09F201EC#001A002800FFFF1F
(1611458242.247474) can0 09F201EC#0172CE04000060D8
(1611458242.248031) can0 09F201EC#020300FFFFFFFFFF
(1611458242.248614) can0 09F201EC#03000000007EFFFF
(1611458242.266908) can0 09F200EC#00000000007FFFFF
(1611458242.366917) can0 09F200EC#00000000007FFFFF
(1611458242.411004) can0 1DF21C04#0405000000000000
(1611458242.466893) can0 09F200EC#00000000007FFFFF
(1611458242.503412) can0 1DF20D01#0151400000000000
(1611458242.503976) can0 1DF01100#E803480100000000
(1611458242.504559) can0 1DF01101#E803480100000000
(1611458242.505139) can0 1DF20D00#0015500000000000
(1611458242.566897) can0 09F200EC#00000000007FFFFF
(1611458242.606703) can0 1DFD0906#066A065B00000000
(1611458242.607266) can0 1DFD0806#066A06C700000000
(1611458242.627515) can0 1DFD0901#0165014C00000000
(1611458242.628076) can0 1DFD0801#016501E500000000
(1611458242.666871) can0 09F200EC#00000000007FFFFF
(1611458242.714181) can0 1DF01104#E803450100000000
(1611458242.714763) can0 1DF20D04#040040FFFFFFFFFF
(1611458242.715343) can0 1DF21C04#0406000000000000
(1611458242.715922) can0 1DFDA404#045551FFFFFFFFFF
(1611458242.746866) can0 09F201EC#201A002800FFFF1F
(1611458242.747412) can0 09F201EC#2172CE04000060D8
(1611458242.748023) can0 09F201EC#220300FFFFFFFFFF
(1611458242.748604) can0 09F201EC#23000000007EFFFF
(1611458242.766868) can0 09F200EC#00000000007FFFFF
(1611458242.846878) can0 15F209EC#800900B700FF7FFF
(1611458242.847434) can0 15F209EC#817FFF7FFFFFFFFF
(1611458242.866865) can0 09F200EC#00000000007FFFFF
(1611458242.966848) can0 09F200EC#00000000007FFFFF
(1611458243.012258) can0 1DF21C04#0407000000000000
(1611458243.066853) can0 09F200EC#00000000007FFFFF
(1611458243.166849) can0 09F200EC#00000000007FFFFF
(1611458243.246812) can0 09F201EC#401A002800FFFF1F
(1611458243.247375) can0 09F201EC#4172CE04000060D8
(1611458243.247950) can0 09F201EC#420300FFFFFFFFFF
(1611458243.248532) can0 09F201EC#43000000007EFFFF
(1611458243.266836) can0 09F200EC#00000000007FFFFF
(1611458243.312866) can0 1DF21C04#0400000000000000
(1611458243.366829) can0 09F200EC#00000000007FFFFF
(1611458243.466800) can0 09F200EC#00000000007FFFFF
(1611458243.505441) can0 1DF20D01#0151400000000000
(1611458243.506008) can0 1DF01100#E803490100000000
(1611458243.506571) can0 1DF01101#E803490100000000
(1611458243.507156) can0 1DF20D00#0015500000000000
(1611458243.566815) can0 09F200EC#00000000007FFFFF
(1611458243.613464) can0 1DF21C04#0401000000000000
(1611458243.666809) can0 09F200EC#00000000007FFFFF
(1611458243.708932) can0 1DFD0906#066A065B00000000
(1611458243.709489) can0 1DFD0806#066A06C700000000
(1611458243.716230) can0 1DF01104#E803460100000000
(1611458243.716826) can0 1DF20D04#040040FFFFFFFFFF
(1611458243.717390) can0 1DFDA404#045551FFFFFFFFFF
(1611458243.729744) can0 1DFD0901#0165014B00000000
(1611458243.730305) can0 1DFD0801#016501E500000000
(1611458243.746798) can0 09F201EC#601A002800FFFF1F
(1611458243.747342) can0 09F201EC#6172CE04000060D8
(1611458243.747909) can0 09F201EC#620300FFFFFFFFFF
(1611458243.748527) can0 09F201EC#63000000007EFFFF
(1611458243.766795) can0 09F200EC#00000000007FFFFF
(1611458243.846766) can0 15F209EC#A00900B700FF7FFF
(1611458243.847345) can0 15F209EC#A17FFF7FFFFFFFFF
(1611458243.866794) can0 09F200EC#00000000007FFFFF
(1611458243.914089) can0 1DF21C04#0402000000000000
(1611458243.966788) can0 09F200EC#00000000007FFFFF
(1611458244.066777) can0 09F200EC#00000000007FFFFF
(1611458244.166781) can0 09F200EC#00000000007FFFFF
(1611458244.214692) can0 1DF21C04#0403000000000000
(1611458244.246749) can0 09F201EC#801A002800FFFF1F
(1611458244.247314) can0 09F201EC#8172CE04000060D8
(1611458244.247896) can0 09F201EC#820300FFFFFFFFFF
(1611458244.248471) can0 09F201EC#83000000007EFFFF
(1611458244.266761) can0 09F200EC#00000000007FFFFF
(1611458244.366750) can0 09F200EC#00000000007FFFFF
(1611458244.466753) can0 09F200EC#00000000007FFFFF
(1611458244.507468) can0 1DF20D01#0151400000000000
(1611458244.508028) can0 1DF01100#E8034A0100000000
(1611458244.508596) can0 1DF01101#E8034A0100000000
(1611458244.509180) can0 1DF20D00#0015500000000000
(1611458244.515301) can0 1DF21C04#0404000000000000
(1611458244.566738) can0 09F200EC#00000000007FFFFF
(1611458244.666724) can0 09F200EC#00000000007FFFFF
(1611458244.718291) can0 1DF01104#E803470100000000
(1611458244.718870) can0 1DF20D04#040040FFFFFFFFFF
(1611458244.719440) can0 1DFDA404#045551FFFFFFFFFF
(1611458244.746716) can0 09F201EC#A01A002800FFFF1F
(1611458244.747283) can0 09F201EC#A172CE04000060D8
(1611458244.747833) can0 09F201EC#A20300FFFFFFFFFF
(1611458244.748440) can0 09F201EC#A3000000007EFFFF
(1611458244.766726) can0 09F200EC#00000000007FFFFF
(1611458244.811162) can0 1DFD0906#066A065B00000000
(1611458244.811727) can0 1DFD0806#066A06C700000000
(1611458244.815919) can0 1DF21C04#0405000000000000
(1611458244.831993) can0 1DFD0901#0165014B00000000
(1611458244.832539) can0 1DFD0801#016501E500000000
(1611458244.846750) can0 15F209EC#C00900B700FF7FFF
(1611458244.847276) can0 15F209EC#C17FFF7FFFFFFFFF
(1611458244.866722) can0 09F200EC#00000000007FFFFF
(1611458244.966718) can0 09F200EC#00000000007FFFFF
(1611458245.066713) can0 09F200EC#00000000007FFFFF
(1611458245.116538) can0 1DF21C04#0406000000000000
(1611458245.166695) can0 09F200EC#00000000007FFFFF
(1611458245.246671) can0 09F201EC#C01A002800FFFF1F
(1611458245.247228) can0 09F201EC#C172CE04000060D8
(1611458245.247798) can0 09F201EC#C20300FFFFFFFFFF
(1611458245.248384) can0 09F201EC#C3000000007EFFFF
(1611458245.266687) can0 09F200EC#00000000007FFFFF
(1611458245.366683) can0 09F200EC#00000000007FFFFF
(1611458245.417159) can0 1DF21C04#0407000000000000
(1611458245.466678) can0 09F200EC#00000000007FFFFF
(1611458245.509704) can0 1DF20D01#0151400000000000
(1611458245.510055) can0 1DF01100#E8034B0100000000
(1611458245.510635) can0 1DF01101#E8034B0100000000
(1611458245.511233) can0 1DF20D00#0015500000000000
(1611458245.566669) can0 09F200EC#00000000007FFFFF
(1611458245.666663) can0 09F200EC#00000000007FFFFF
(1611458245.720330) can0 1DF01104#E803480100000000
(1611458245.720907) can0 1DF20D04#040040FFFFFFFFFF
(1611458245.721486) can0 1DF21C04#0400000000000000
(1611458245.722065) can0 1DFDA404#045551FFFFFFFFFF
(1611458245.746640) can0 09F201EC#E01A002800FFFF1F
(1611458245.747184) can0 09F201EC#E172CE04000060D8
(1611458245.747762) can0 09F201EC#E20300FFFFFFFFFF
(1611458245.748358) can0 09F201EC#E3000000007EFFFF
(1611458245.766654) can0 09F200EC#00000000007FFFFF
(1611458245.846665) can0 15F209EC#E00900B700FF7FFF
(1611458245.847205) can0 15F209EC#E17FFF7FFFFFFFFF
(1611458245.866700) can0 09F200EC#00000000007FFFFF
(1611458245.913404) can0 1DFD0906#066A065B00000000
(1611458245.913961) can0 1DFD0806#066A06C700000000
(1611458245.934211) can0 1DFD0901#0165014B00000000
(1611458245.934775) can0 1DFD0801#016501E500000000
(1611458245.966648) can0 09F200EC#00000000007FFFFF
(1611458246.018376) can0 1DF21C04#0401000000000000
(1611458246.066641) can0 09F200EC#00000000007FFFFF
(1611458246.166634) can0 09F200EC#00000000007FFFFF
(1611458246.246600) can0 09F201EC#001A002800FFFF1F
(1611458246.247163) can0 09F201EC#0172CE04000060D8
(1611458246.247747) can0 09F201EC#020300FFFFFFFFFF
(1611458246.248329) can0 09F201EC#03000000007EFFFF
(1611458246.266610) can0 09F200EC#00000000007FFFFF
(1611458246.318993) can0 1DF21C04#0402000000000000
(1611458246.366610) can0 09F200EC#00000000007FFFFF
(1611458246.466609) can0 09F200EC#00000000007FFFFF
(1611458246.511517) can0 1DF20D01#0151400000000000
(1611458246.512074) can0 1DF01100#E8034C0100000000
(1611458246.512649) can0 1DF01101#E8034C0100000000
(1611458246.513229) can0 1DF20D00#0015500000000000
(1611458246.566600) can0 09F200EC#00000000007FFFFF
(1611458246.619614) can0 1DF21C04#0403000000000000
(1611458246.666587) can0 09F200EC#00000000007FFFFF
(1611458246.722384) can0 1DF01104#E803490100000000
(1611458246.722969) can0 1DF20D04#040040FFFFFFFFFF
(1611458246.723538) can0 1DFDA404#045551FFFFFFFFFF
(1611458246.746587) can0 09F201EC#201A002800FFFF1F
(1611458246.747128) can0 09F201EC#2172CE04000060D8
(1611458246.747713) can0 09F201EC#220300FFFFFFFFFF
(1611458246.748313) can0 09F201EC#23000000007EFFFF
(1611458246.766591) can0 09F200EC#00000000007FFFFF
(1611458246.846577) can0 15F209EC#000900B700FF7FFF
(1611458246.847165) can0 15F209EC#017FFF7FFFFFFFFF
(1611458246.866583) can0 09F200EC#00000000007FFFFF
(1611458246.920231) can0 1DF21C04#0404000000000000
(1611458246.966568) can0 09F200EC#00000000007FFFFF
(1611458247.015631) can0 1DFD0906#066A065B00000000
(1611458247.016188) can0 1DFD0806#066A06C700000000
(1611458247.036445) can0 1DFD0901#0165014B00000000
(1611458247.037008) can0 1DFD0801#016501E500000000
(1611458247.066578) can0 09F200EC#00000000007FFFFF
(1611458247.166549) can0 09F200EC#00000000007FFFFF
(1611458247.220860) can0 1DF21C04#0405000000000000
(1611458247.246532) can0 09F201EC#401A002800FFFF1F
(1611458247.247089) can0 09F201EC#4172CE04000060D8
(1611458247.247666) can0 09F201EC#420300FFFFFFFFFF
(1611458247.248242) can0 09F201EC#43000000007EFFFF
(1611458247.266549) can0 09F200EC#00000000007FFFFF
(1611458247.366541) can0 09F200EC#00000000007FFFFF
(1611458247.466535) can0 09F200EC#00000000007FFFFF
(1611458247.513529) can0 1DF20D01#0151400000000000
(1611458247.514095) can0 1DF01100#E8034D0100000000
(1611458247.514674) can0 1DF01101#E8034D0100000000
(1611458247.515255) can0 1DF20D00#0015500000000000
(1611458247.521419) can0 1DF21C04#0406000000000000
(1611458247.566537) can0 09F200EC#00000000007FFFFF
(1611458247.666524) can0 09F200EC#00000000007FFFFF
(1611458247.724424) can0 1DF01104#E8034A0100000000
(1611458247.725009) can0 1DF20D04#040040FFFFFFFFFF
(1611458247.725577) can0 1DFDA404#045551FFFFFFFFFF
(1611458247.746521) can0 09F201EC#601A002800FFFF1F
(1611458247.747074) can0 09F201EC#6172CE04000060D8
(1611458247.747639) can0 09F201EC#620300FFFFFFFFFF
(1611458247.748248) can0 09F201EC#63000000007EFFFF
(1611458247.766510) can0 09F200EC#00000000007FFFFF
(1611458247.822061) can0 1DF21C04#0407000000000000
(1611458247.846474) can0 15F209EC#200900B700FF7FFF
(1611458247.847056) can0 15F209EC#217FFF7FFFFFFFFF
(1611458247.866511) can0 09F200EC#00000000007FFFFF
(1611458247.966492) can0 09F200EC#00000000007FFFFF
(1611458248.066491) can0 09F200EC#00000000007FFFFF
(1611458248.117865) can0 1DFD0906#066A065B00000000
(1611458248.118430) can0 1DFD0806#066A06C700000000
(1611458248.122672) can0 1DF21C04#0400000000000000
(1611458248.138689) can0 1DFD0901#0165014B00000000
(1611458248.139248) can0 1DFD0801#016501E500000000
(1611458248.166497) can0 09F200EC#00000000007FFFFF
(1611458248.246544) can0 09F201EC#801A002800FFFF1F
(1611458248.247030) can0 09F201EC#8172CE04000060D8
(1611458248.247617) can0 09F201EC#820300FFFFFFFFFF
(1611458248.248194) can0 09F201EC#83000000007EFFFF
(1611458248.266474) can0 09F200EC#00000000007FFFFF
(1611458248.366466) can0 09F200EC#00000000007FFFFF
(1611458248.423292) can0 1DF21C04#0401000000000000
(1611458248.466462) can0 09F200EC#00000000007FFFFF
(1611458248.515573) can0 1DF20D01#0151400000000000
(1611458248.516131) can0 1DF01100#E8034E0100000000
(1611458248.516728) can0 1DF01101#E8034E0100000000
(1611458248.517292) can0 1DF20D00#0015500000000000
(1611458248.566482) can0 09F200EC#00000000007FFFFF
(1611458248.666442) can0 09F200EC#00000000007FFFFF
(1611458248.726489) can0 1DF01104#E8034B0100000000
(1611458248.727065) can0 1DF20D04#040040FFFFFFFFFF
(1611458248.727644) can0 1DF21C04#0402000000000000
(1611458248.728218) can0 1DFDA404#045551FFFFFFFFFF
(1611458248.746438) can0 09F201EC#A01A002800FFFF1F
(1611458248.746971) can0 09F201EC#A172CE04000060D8
(1611458248.747549) can0 09F201EC#A20300FFFFFFFFFF
(1611458248.748155) can0 09F201EC#A3000000007EFFFF
(1611458248.766442) can0 09F200EC#00000000007FFFFF
(1611458248.846442) can0 15F209EC#400900B700FF7FFF
(1611458248.846990) can0 15F209EC#417FFF7FFFFFFFFF
(1611458248.866446) can0 09F200EC#00000000007FFFFF
(1611458248.966428) can0 09F200EC#00000000007FFFFF
(1611458249.024515) can0 1DF21C04#0403000000000000
(1611458249.066429) can0 09F200EC#00000000007FFFFF
(1611458249.166483) can0 09F200EC#00000000007FFFFF
(1611458249.220103) can0 1DFD0906#066A065B00000000
(1611458249.220663) can0 1DFD0806#066A06C700000000
(1611458249.240914) can0 1DFD0901#0165014B00000000
(1611458249.241486) can0 1DFD0801#016501E500000000
(1611458249.246386) can0 09F201EC#C01A002800FFFF1F
(1611458249.246940) can0 09F201EC#C172CE04000060D8
(1611458249.247524) can0 09F201EC#C20300FFFFFFFFFF
(1611458249.248094) can0 09F201EC#C3000000007EFFFF
(1611458249.266403) can0 09F200EC#00000000007FFFFF
(1611458249.325176) can0 1DF21C04#0404000000000000
(1611458249.366387) can0 09F200EC#00000000007FFFFF
(1611458249.466393) can0 09F200EC#00000000007FFFFF
(1611458249.517596) can0 1DF20D01#0151400000000000
(1611458249.518327) can0 1DF01100#E8034F0100000000
(1611458249.518734) can0 1DF01101#E8034F0100000000
(1611458249.519310) can0 1DF20D00#0015500000000000
(1611458249.566385) can0 09F200EC#00000000007FFFFF
(1611458249.625758) can0 1DF21C04#0405000000000000
(1611458249.666387) can0 09F200EC#00000000007FFFFF
(1611458249.728509) can0 1DF01104#E8034C0100000000
(1611458249.729100) can0 1DF20D04#040040FFFFFFFFFF
(1611458249.729673) can0 1DFDA404#045551FFFFFFFFFF
(1611458249.746346) can0 09F201EC#E01A002800FFFF1F
(1611458249.746902) can0 09F201EC#E172CE04000060D8
(1611458249.747477) can0 09F201EC#E20300FFFFFFFFFF
(1611458249.748071) can0 09F201EC#E3000000007EFFFF
(1611458249.766370) can0 09F200EC#00000000007FFFFF
(1611458249.846351) can0 15F209EC#600900B700FF7FFF
(1611458249.846910) can0 15F209EC#617FFF7FFFFFFFFF
(1611458249.866360) can0 09F200EC#00000000007FFFFF
(1611458249.926358) can0 1DF21C04#0406000000000000
(1611458249.966353) can0 09F200EC#00000000007FFFFF
(1611458250.066357) can0 09F200EC#00000000007FFFFF
(1611458250.166354) can0 09F200EC#00000000007FFFFF
(1611458250.226982) can0 1DF21C04#0407000000000000
(1611458250.246321) can0 09F201EC#001A002800FFFF1F
(1611458250.246880) can0 09F201EC#0172CE04000060D8
(1611458250.247456) can0 09F201EC#020300FFFFFFFFFF
(1611458250.248036) can0 09F201EC#03000000007EFFFF
(1611458250.266339) can0 09F200EC#00000000007FFFFF
(1611458250.322318) can0 1DFD0906#066A065B00000000
(1611458250.322880) can0 1DFD0806#066A06C700000000
(1611458250.343147) can0 1DFD0901#0165014B00000000
(1611458250.343711) can0 1DFD0801#016501E500000000
(1611458250.366323) can0 09F200EC#00000000007FFFFF
(1611458250.466310) can0 09F200EC#00000000007FFFFF
(1611458250.519625) can0 1DF20D01#0151400000000000
(1611458250.520190) can0 1DF01100#E803500100000000
(1611458250.520771) can0 1DF01101#E803500100000000
(1611458250.521345) can0 1DF20D00#0015500000000000
(1611458250.527587) can0 1DF21C04#0400000000000000
(1611458250.566308) can0 09F200EC#00000000007FFFFF
(1611458250.666296) can0 09F200EC#00000000007FFFFF
(1611458250.730576) can0 1DF01104#E8034D0100000000
(1611458250.731156) can0 1DF20D04#040040FFFFFFFFFF
(1611458250.731724) can0 1DFDA404#045551FFFFFFFFFF
(1611458250.746285) can0 09F201EC#201A002800FFFF1F
(1611458250.746840) can0 09F201EC#2172CE04000060D8
(1611458250.747420) can0 09F201EC#220300FFFFFFFFFF
(1611458250.748021) can0 09F201EC#23000000007EFFFF
(1611458250.766314) can0 09F200EC#00000000007FFFFF
(1611458250.828223) can0 1DF21C04#0401000000000000
(1611458250.846255) can0 15F209EC#800900B700FF7FFF
(1611458250.846841) can0 15F209EC#817FFF7FFFFFFFFF
(1611458250.866295) can0 09F200EC#00000000007FFFFF
(1611458250.966285) can0 09F200EC#00000000007FFFFF
(1611458251.066278) can0 09F200EC#00000000007FFFFF
(1611458251.128829) can0 1DF21C04#0402000000000000
(1611458251.166284) can0 09F200EC#00000000007FFFFF
(1611458251.246284) can0 09F201EC#401A002800FFFF1F
(1611458251.246802) can0 09F201EC#4172CE04000060D8
(1611458251.247383) can0 09F201EC#420300FFFFFFFFFF
(1611458251.247960) can0 09F201EC#43000000007EFFFF
(1611458251.266272) can0 09F200EC#00000000007FFFFF
(1611458251.366254) can0 09F200EC#00000000007FFFFF
(1611458251.424573) can0 1DFD0906#066A065B00000000
(1611458251.425112) can0 1DFD0806#066A06C700000000
(1611458251.429436) can0 1DF21C04#0403000000000000
(1611458251.445383) can0 1DFD0901#0165014B00000000
(1611458251.445942) can0 1DFD0801#016501E500000000
(1611458251.466233) can0 09F200EC#00000000007FFFFF
(1611458251.521652) can0 1DF20D01#0151400000000000
(1611458251.522216) can0 1DF01100#E803510100000000
(1611458251.522788) can0 1DF01101#E803510100000000
(1611458251.523368) can0 1DF20D00#0015500000000000
(1611458251.566266) can0 09F200EC#00000000007FFFFF
(1611458251.666231) can0 09F200EC#00000000007FFFFF
(1611458251.732631) can0 1DF01104#E8034E0100000000
(1611458251.733211) can0 1DF20D04#040040FFFFFFFFFF
(1611458251.733789) can0 1DF21C04#0404000000000000
(1611458251.734367) can0 1DFDA404#045551FFFFFFFFFF
(1611458251.746224) can0 09F201EC#601A002800FFFF1F
(1611458251.746761) can0 09F201EC#6172CE04000060D8
(1611458251.747341) can0 09F201EC#620300FFFFFFFFFF
(1611458251.747956) can0 09F201EC#63000000007EFFFF
(1611458251.766215) can0 09F200EC#00000000007FFFFF
(1611458251.846196) can0 15F209EC#A00900B700FF7FFF
(1611458251.846764) can0 15F209EC#A17FFF7FFFFFFFFF
(1611458251.866217) can0 09F200EC#00000000007FFFFF
(1611458251.966224) can0 09F200EC#00000000007FFFFF
(1611458252.030674) can0 1DF21C04#0405000000000000
(1611458252.066196) can0 09F200EC#00000000007FFFFF
(1611458252.166201) can0 09F200EC#00000000007FFFFF
(1611458252.246175) can0 09F201EC#801A002800FFFF1F
(1611458252.246732) can0 09F201EC#8172CE04000060D8
(1611458252.247315) can0 09F201EC#820300FFFFFFFFFF
(1611458252.247887) can0 09F201EC#83000000007EFFFF
(1611458252.266189) can0 09F200EC#00000000007FFFFF
(1611458252.331279) can0 1DF21C04#0406000000000000
(1611458252.366187) can0 09F200EC#00000000007FFFFF
(1611458252.466179) can0 09F200EC#00000000007FFFFF
(1611458252.523672) can0 1DF20D01#0151400000000000
(1611458252.524241) can0 1DF01100#E803520100000000
(1611458252.524806) can0 1DF01101#E803520100000000
(1611458252.525406) can0 1DF20D00#0015500000000000
(1611458252.526779) can0 1DFD0906#066A065B00000000
(1611458252.527356) can0 1DFD0806#066A06C700000000
(1611458252.547637) can0 1DFD0901#0165014B00000000
(1611458252.548190) can0 1DFD0801#016501E500000000
(1611458252.566169) can0 09F200EC#00000000007FFFFF
(1611458252.631941) can0 1DF21C04#0407000000000000
(1611458252.666160) can0 09F200EC#00000000007FFFFF
(1611458252.734663) can0 1DF01104#E8034F0100000000
(1611458252.735250) can0 1DF20D04#040040FFFFFFFFFF
(1611458252.735817) can0 1DFDA404#045551FFFFFFFFFF
(1611458252.749140) can0 09F201EC#A01A002800FFFF1F
(1611458252.749681) can0 09F201EC#A172CE04000060D8
(1611458252.750264) can0 09F201EC#A20300FFFFFFFFFF
(1611458252.750842) can0 09F201EC#A3000000007EFFFF
(1611458252.767152) can0 09F200EC#00000000007FFFFF
(1611458252.846137) can0 15F209EC#C00900B700FF7FFF
(1611458252.846709) can0 15F209EC#C17FFF7FFFFFFFFF
(1611458252.866142) can0 09F200EC#00000000007FFFFF
(1611458252.932520) can0 1DF21C04#0400000000000000
(1611458252.966148) can0 09F200EC#00000000007FFFFF
(1611458253.066139) can0 09F200EC#00000000007FFFFF
(1611458253.166128) can0 09F200EC#00000000007FFFFF
(1611458253.233127) can0 1DF21C04#0401000000000000
(1611458253.246115) can0 09F201EC#C01A002800FFFF1F
(1611458253.246670) can0 09F201EC#C172CE04000060D8
(1611458253.247259) can0 09F201EC#C20300FFFFFFFFFF
(1611458253.247817) can0 09F201EC#C3000000007EFFFF
(1611458253.265112) can0 09F200EC#00000000007FFFFF
(1611458253.366113) can0 09F200EC#00000000007FFFFF
(1611458253.466108) can0 09F200EC#00000000007FFFFF
(1611458253.525702) can0 1DF20D01#0151400000000000
(1611458253.526268) can0 1DF01100#E803530100000000
(1611458253.526837) can0 1DF01101#E803530100000000
(1611458253.527415) can0 1DF20D00#0015500000000000
(1611458253.533736) can0 1DF21C04#0402000000000000
(1611458253.566112) can0 09F200EC#00000000007FFFFF
(1611458253.629019) can0 1DFD0906#066A065B00000000
(1611458253.629575) can0 1DFD0806#066A06C700000000
(1611458253.649875) can0 1DFD0901#0165014B00000000
(1611458253.650433) can0 1DFD0801#016501E500000000
(1611458253.666090) can0 09F200EC#00000000007FFFFF
(1611458253.736720) can0 1DF01104#E803500100000000
(1611458253.737298) can0 1DF20D04#040040FFFFFFFFFF
(1611458253.737869) can0 1DFDA404#045551FFFFFFFFFF
(1611458253.746076) can0 09F201EC#E01A002800FFFF1F
(1611458253.746624) can0 09F201EC#E172CE04000060D8
(1611458253.747212) can0 09F201EC#E20300FFFFFFFFFF
(1611458253.747800) can0 09F201EC#E3000000007EFFFF
(1611458253.766079) can0 09F200EC#00000000007FFFFF
(1611458253.834372) can0 1DF21C04#0403000000000000
(1611458253.846061) can0 15F209EC#E00900B700FF7FFF
(1611458253.846623) can0 15F209EC#E17FFF7FFFFFFFFF
(1611458253.866073) can0 09F200EC#00000000007FFFFF
(1611458253.966070) can0 09F200EC#00000000007FFFFF
(1611458254.066061) can0 09F200EC#00000000007FFFFF
(1611458254.134975) can0 1DF21C04#0404000000000000
(1611458254.166051) can0 09F200EC#00000000007FFFFF
(1611458254.246069) can0 09F201EC#001A002800FFFF1F
(1611458254.246672) can0 09F201EC#0172CE04000060D8
(1611458254.247179) can0 09F201EC#020300FFFFFFFFFF
(1611458254.247798) can0 09F201EC#03000000007EFFFF
(1611458254.265043) can0 09F200EC#00000000007FFFFF
(1611458254.366041) can0 09F200EC#00000000007FFFFF
(1611458254.435585) can0 1DF21C04#0405000000000000
(1611458254.466031) can0 09F200EC#00000000007FFFFF
(1611458254.527734) can0 1DF20D01#0151400000000000
(1611458254.528304) can0 1DF01100#E803540100000000
(1611458254.528904) can0 1DF01101#E803540100000000
(1611458254.529452) can0 1DF20D00#0015500000000000
(1611458254.566026) can0 09F200EC#00000000007FFFFF
(1611458254.666016) can0 09F200EC#00000000007FFFFF
(1611458254.731245) can0 1DFD0906#066A065B00000000
(1611458254.731806) can0 1DFD0806#066A06C700000000
(1611458254.738755) can0 1DF01104#E803510100000000
(1611458254.739337) can0 1DF20D04#040040FFFFFFFFFF
(1611458254.739921) can0 1DF21C04#0406000000000000
(1611458254.740499) can0 1DFDA404#045551FFFFFFFFFF
(1611458254.747070) can0 09F201EC#201A002800FFFF1F
(1611458254.747554) can0 09F201EC#2172CE04000060D8
(1611458254.748141) can0 09F201EC#220300FFFFFFFFFF
(1611458254.748720) can0 09F201EC#23000000007EFFFF
(1611458254.752092) can0 1DFD0901#0165014B00000000
(1611458254.752651) can0 1DFD0801#016501E500000000
(1611458254.766008) can0 09F200EC#00000000007FFFFF
(1611458254.845984) can0 15F209EC#000900B700FF7FFF
(1611458254.846560) can0 15F209EC#017FFF7FFFFFFFFF
(1611458254.866008) can0 09F200EC#00000000007FFFFF
(1611458254.966009) can0 09F200EC#00000000007FFFFF
(1611458255.036824) can0 1DF21C04#0407000000000000
(1611458255.065989) can0 09F200EC#00000000007FFFFF
(1611458255.165989) can0 09F200EC#00000000007FFFFF
(1611458255.245958) can0 09F201EC#401A002800FFFF1F
(1611458255.246513) can0 09F201EC#4172CE04000060D8
(1611458255.247089) can0 09F201EC#420300FFFFFFFFFF
(1611458255.247657) can0 09F201EC#43000000007EFFFF
(1611458255.264983) can0 09F200EC#00000000007FFFFF
(1611458255.337436) can0 1DF21C04#0400000000000000
(1611458255.365970) can0 09F200EC#00000000007FFFFF
(1611458255.465959) can0 09F200EC#00000000007FFFFF
(1611458255.529757) can0 1DF20D01#0151400000000000
(1611458255.530320) can0 1DF01100#E803550100000000
(1611458255.530884) can0 1DF01101#E803550100000000
(1611458255.531470) can0 1DF20D00#0015500000000000
(1611458255.565951) can0 09F200EC#00000000007FFFFF
(1611458255.638047) can0 1DF21C04#0401000000000000
(1611458255.665952) can0 09F200EC#00000000007FFFFF
(1611458255.740873) can0 1DF01104#E803520100000000
(1611458255.741398) can0 1DF20D04#040040FFFFFFFFFF
(1611458255.741975) can0 1DFDA404#045551FFFFFFFFFF
(1611458255.745916) can0 09F201EC#601A002800FFFF1F
(1611458255.746476) can0 09F201EC#6172CE04000060D8
(1611458255.747047) can0 09F201EC#620300FFFFFFFFFF
(1611458255.747654) can0 09F201EC#63000000007EFFFF
(1611458255.765935) can0 09F200EC#00000000007FFFFF
(1611458255.833487) can0 1DFD0906#066A065B00000000
(1611458255.834048) can0 1DFD0806#066A06C700000000
(1611458255.845913) can0 15F209EC#200900B700FF7FFF
(1611458255.846544) can0 15F209EC#217FFF7FFFFFFFFF
(1611458255.854331) can0 1DFD0901#0165014B00000000
(1611458255.854893) can0 1DFD0801#016501E500000000
(1611458255.865922) can0 09F200EC#00000000007FFFFF
(1611458255.938672) can0 1DF21C04#0402000000000000
(1611458255.965933) can0 09F200EC#00000000007FFFFF
(1611458256.065958) can0 09F200EC#00000000007FFFFF
(1611458256.165897) can0 09F200EC#00000000007FFFFF
(1611458256.239275) can0 1DF21C04#0403000000000000
(1611458256.245884) can0 09F201EC#801A002800FFFF1F
(1611458256.246499) can0 09F201EC#8172CE04000060D8
(1611458256.247028) can0 09F201EC#820300FFFFFFFFFF
(1611458256.247600) can0 09F201EC#83000000007EFFFF
(1611458256.264899) can0 09F200EC#00000000007FFFFF
(1611458256.365893) can0 09F200EC#00000000007FFFFF
(1611458256.465891) can0 09F200EC#00000000007FFFFF
(1611458256.531800) can0 1DF20D01#0151400000000000
(1611458256.532359) can0 1DF01100#E803560100000000
(1611458256.532926) can0 1DF01101#E803560100000000
(1611458256.533526) can0 1DF20D00#0015500000000000
(1611458256.539902) can0 1DF21C04#0404000000000000
(1611458256.565889) can0 09F200EC#00000000007FFFFF
(1611458256.665874) can0 09F200EC#00000000007FFFFF
(1611458256.742871) can0 1DF01104#E803530100000000
(1611458256.743472) can0 1DF20D04#040040FFFFFFFFFF
(1611458256.744020) can0 1DFDA404#045551FFFFFFFFFF
(1611458256.746838) can0 09F201EC#A01A002800FFFF1F
(1611458256.747397) can0 09F201EC#A172CE04000060D8
(1611458256.747960) can0 09F201EC#A20300FFFFFFFFFF
(1611458256.748554) can0 09F201EC#A3000000007EFFFF
(1611458256.766874) can0 09F200EC#00000000007FFFFF
(1611458256.840502) can0 1DF21C04#0405000000000000
(1611458256.845850) can0 15F209EC#400900B700FF7FFF
(1611458256.846469) can0 15F209EC#417FFF7FFFFFFFFF
(1611458256.865860) can0 09F200EC#00000000007FFFFF
(1611458256.935719) can0 1DFD0906#066A065B00000000
(1611458256.936270) can0 1DFD0806#066A06C700000000
(1611458256.956561) can0 1DFD0901#0165014B00000000
(1611458256.957121) can0 1DFD0801#016501E500000000
(1611458256.966841) can0 09F200EC#00000000007FFFFF
(1611458257.065842) can0 09F200EC#00000000007FFFFF
(1611458257.141117) can0 1DF21C04#0406000000000000
(1611458257.165840) can0 09F200EC#00000000007FFFFF
(1611458257.245825) can0 09F201EC#C01A002800FFFF1F
(1611458257.246373) can0 09F201EC#C172CE04000060D8
(1611458257.246951) can0 09F201EC#C20300FFFFFFFFFF
(1611458257.247528) can0 09F201EC#C3000000007EFFFF
(1611458257.264832) can0 09F200EC#00000000007FFFFF
(1611458257.365815) can0 09F200EC#00000000007FFFFF
(1611458257.441729) can0 1DF21C04#0407000000000000
(1611458257.465818) can0 09F200EC#00000000007FFFFF
(1611458257.533805) can0 1DF20D01#0151400000000000
(1611458257.534371) can0 1DF01100#E803570100000000
(1611458257.534939) can0 1DF01101#E803570100000000
(1611458257.535522) can0 1DF20D00#0015500000000000
(1611458257.565808) can0 09F200EC#00000000007FFFFF
(1611458257.665804) can0 09F200EC#00000000007FFFFF
(1611458257.744916) can0 1DF01104#E803540100000000
(1611458257.745500) can0 1DF20D04#040040FFFFFFFFFF
(1611458257.746098) can0 1DF21C04#0400000000000000
(1611458257.746661) can0 09F201EC#E01A002800FFFF1F
(1611458257.747206) can0 09F201EC#E172CE04000060D8
(1611458257.747787) can0 09F201EC#E20300FFFFFFFFFF
(1611458257.748362) can0 09F201EC#E3000000007EFFFF
(1611458257.748931) can0 1DFDA404#045551FFFFFFFFFF
(1611458257.765794) can0 09F200EC#00000000007FFFFF
(1611458257.845761) can0 15F209EC#600900B700FF7FFF
(1611458257.846332) can0 15F209EC#617FFF7FFFFFFFFF
(1611458257.865779) can0 09F200EC#00000000007FFFFF
(1611458257.965791) can0 09F200EC#00000000007FFFFF
(1611458258.037937) can0 1DFD0906#066A065B00000000
(1611458258.038504) can0 1DFD0806#066A06C700000000
(1611458258.042962) can0 1DF21C04#0401000000000000
(1611458258.058788) can0 1DFD0901#0165014B00000000
(1611458258.059361) can0 1DFD0801#016501E500000000
(1611458258.065761) can0 09F200EC#00000000007FFFFF
(1611458258.165774) can0 09F200EC#00000000007FFFFF
(1611458258.245748) can0 09F201EC#001A002800FFFF1F
(1611458258.246320) can0 09F201EC#0172CE04000060D8
(1611458258.246890) can0 09F201EC#020300FFFFFFFFFF
(1611458258.247470) can0 09F201EC#03000000007EFFFF
(1611458258.265753) can0 09F200EC#00000000007FFFFF
(1611458258.343592) can0 1DF21C04#0402000000000000
(1611458258.365760) can0 09F200EC#00000000007FFFFF
(1611458258.465751) can0 09F200EC#00000000007FFFFF
(1611458258.535832) can0 1DF20D01#0151400000000000
(1611458258.536407) can0 1DF01100#E803580100000000
(1611458258.536974) can0 1DF01101#E803580100000000
(1611458258.537556) can0 1DF20D00#0015500000000000
(1611458258.565734) can0 09F200EC#00000000007FFFFF
(1611458258.612264) can0 1DF01116#60EA00FFFFFFFFFF
(1611458258.644191) can0 1DF21C04#0403000000000000
(1611458258.665724) can0 09F200EC#00000000007FFFFF
(1611458258.745733) can0 09F201EC#201A002800FFFF1F
(1611458258.746300) can0 09F201EC#2172CE04000060D8
(1611458258.746858) can0 09F201EC#220300FFFFFFFFFF
(1611458258.747432) can0 1DF01104#E803550100000000
(1611458258.748017) can0 09F201EC#23000000007EFFFF
(1611458258.748603) can0 1DF20D04#040040FFFFFFFFFF
(1611458258.749180) can0 1DFDA404#045551FFFFFFFFFF
(1611458258.765723) can0 09F200EC#00000000007FFFFF
(1611458258.845683) can0 15F209EC#800900B700FF7FFF
(1611458258.846272) can0 15F209EC#817FFF7FFFFFFFFF
(1611458258.865697) can0 09F200EC#00000000007FFFFF
(1611458258.944813) can0 1DF21C04#0404000000000000
(1611458258.965705) can0 09F200EC#00000000007FFFFF
(1611458259.065708) can0 09F200EC#00000000007FFFFF
(1611458259.140184) can0 1DFD0906#066A065B00000000
(1611458259.140738) can0 1DFD0806#066A06C700000000
(1611458259.161035) can0 1DFD0901#0165014B00000000
(1611458259.161597) can0 1DFD0801#016501E500000000
(1611458259.165689) can0 09F200EC#00000000007FFFFF
(1611458259.245424) can0 1DF21C04#0405000000000000
(1611458259.245986) can0 09F201EC#401A002800FFFF1F
(1611458259.246544) can0 09F201EC#4172CE04000060D8
(1611458259.247122) can0 09F201EC#420300FFFFFFFFFF
(1611458259.247712) can0 09F201EC#43000000007EFFFF
(1611458259.265690) can0 09F200EC#00000000007FFFFF
(1611458259.365773) can0 09F200EC#00000000007FFFFF
(1611458259.465670) can0 09F200EC#00000000007FFFFF
(1611458259.537880) can0 1DF20D01#0151400000000000
(1611458259.538440) can0 1DF01100#E803590100000000
(1611458259.539002) can0 1DF01101#E803590100000000
(1611458259.539586) can0 1DF20D00#0015500000000000
(1611458259.546044) can0 1DF21C04#0406000000000000
(1611458259.565655) can0 09F200EC#00000000007FFFFF
(1611458259.665662) can0 09F200EC#00000000007FFFFF
(1611458259.745627) can0 09F201EC#601A002800FFFF1F
(1611458259.746187) can0 09F201EC#6172CE04000060D8
(1611458259.746759) can0 09F201EC#620300FFFFFFFFFF
(1611458259.747369) can0 09F201EC#63000000007EFFFF
(1611458259.749024) can0 1DF01104#E803560100000000
(1611458259.749591) can0 1DF20D04#040040FFFFFFFFFF
(1611458259.750170) can0 1DFDA404#045551FFFFFFFFFF
(1611458259.765648) can0 09F200EC#00000000007FFFFF
(1611458259.845613) can0 15F209EC#A00900B700FF7FFF
(1611458259.846189) can0 15F209EC#A17FFF7FFFFFFFFF
(1611458259.846768) can0 1DF21C04#0407000000000000
(1611458259.865655) can0 09F200EC#00000000007FFFFF
(1611458259.965637) can0 09F200EC#00000000007FFFFF
(1611458260.065633) can0 09F200EC#00000000007FFFFF
(1611458260.147265) can0 1DF21C04#0400000000000000
(1611458260.165637) can0 09F200EC#00000000007FFFFF
(1611458260.242400) can0 1DFD0906#066A065B00000000
(1611458260.242964) can0 1DFD0806#066A06C700000000
(1611458260.246534) can0 09F201EC#801A002800FFFF1F
(1611458260.247082) can0 09F201EC#8172CE04000060D8
(1611458260.247667) can0 09F201EC#820300FFFFFFFFFF
(1611458260.248247) can0 09F201EC#83000000007EFFFF
(1611458260.263257) can0 1DFD0901#0165014B00000000
(1611458260.263839) can0 1DFD0801#016501E500000000
(1611458260.265605) can0 09F200EC#00000000007FFFFF
(1611458260.365610) can0 09F200EC#00000000007FFFFF
(1611458260.447864) can0 1DF21C04#0401000000000000
(1611458260.465596) can0 09F200EC#00000000007FFFFF
(1611458260.539901) can0 1DF20D01#0151400000000000
(1611458260.540502) can0 1DF01100#E8035A0100000000
(1611458260.541061) can0 1DF01101#E8035A0100000000
(1611458260.541618) can0 1DF20D00#0015500000000000
(1611458260.565593) can0 09F200EC#00000000007FFFFF
(1611458260.665592) can0 09F200EC#00000000007FFFFF
(1611458260.745554) can0 09F201EC#A01A002800FFFF1F
(1611458260.746108) can0 09F201EC#A172CE04000060D8
(1611458260.746681) can0 09F201EC#A20300FFFFFFFFFF
(1611458260.747288) can0 09F201EC#A3000000007EFFFF
(1611458260.751049) can0 1DF01104#E803570100000000
(1611458260.751638) can0 1DF20D04#040040FFFFFFFFFF
(1611458260.752219) can0 1DF21C04#0402000000000000
(1611458260.752794) can0 1DFDA404#045551FFFFFFFFFF
(1611458260.764567) can0 09F200EC#00000000007FFFFF
(1611458260.845558) can0 15F209EC#C00900B700FF7FFF
(1611458260.846124) can0 15F209EC#C17FFF7FFFFFFFFF
(1611458260.865568) can0 09F200EC#00000000007FFFFF
(1611458260.965565) can0 09F200EC#00000000007FFFFF
(1611458261.049110) can0 1DF21C04#0403000000000000
(1611458261.065558) can0 09F200EC#00000000007FFFFF
(1611458261.165559) can0 09F200EC#00000000007FFFFF
(1611458261.245541) can0 09F201EC#C01A002800FFFF1F
(1611458261.246072) can0 09F201EC#C172CE04000060D8
(1611458261.246654) can0 09F201EC#C20300FFFFFFFFFF
(1611458261.247239) can0 09F201EC#C3000000007EFFFF
(1611458261.265529) can0 09F200EC#00000000007FFFFF
(1611458261.344637) can0 1DFD0906#066A065B00000000
(1611458261.345195) can0 1DFD0806#066A06C700000000
(1611458261.349726) can0 1DF21C04#0404000000000000
(1611458261.365501) can0 1DFD0901#0165014B00000000
(1611458261.366080) can0 09F200EC#00000000007FFFFF
(1611458261.366648) can0 1DFD0801#016501E500000000
(1611458261.465526) can0 09F200EC#00000000007FFFFF
(1611458261.541996) can0 1DF20D01#0151400000000000
(1611458261.542476) can0 1DF01100#E8035B0100000000
(1611458261.543055) can0 1DF01101#E8035B0100000000
(1611458261.543639) can0 1DF20D00#0015500000000000
(1611458261.565517) can0 09F200EC#00000000007FFFFF
(1611458261.650350) can0 1DF21C04#0405000000000000
(1611458261.664527) can0 09F200EC#00000000007FFFFF
(1611458261.745488) can0 09F201EC#E01A002800FFFF1F
(1611458261.746054) can0 09F201EC#E172CE04000060D8
(1611458261.746609) can0 09F201EC#E20300FFFFFFFFFF
(1611458261.747214) can0 09F201EC#E3000000007EFFFF
(1611458261.753105) can0 1DF01104#E803580100000000
(1611458261.753688) can0 1DF20D04#040040FFFFFFFFFF
(1611458261.754264) can0 1DFDA404#045551FFFFFFFFFF
(1611458261.765503) can0 09F200EC#00000000007FFFFF
(1611458261.845481) can0 15F209EC#E00900B700FF7FFF
(1611458261.846046) can0 15F209EC#E17FFF7FFFFFFFFF
(1611458261.865482) can0 09F200EC#00000000007FFFFF
(1611458261.950965) can0 1DF21C04#0406000000000000
(1611458261.965501) can0 09F200EC#00000000007FFFFF
(1611458262.065491) can0 09F200EC#00000000007FFFFF
(1611458262.165471) can0 09F200EC#00000000007FFFFF
(1611458262.245466) can0 09F201EC#001A002800FFFF1F
(1611458262.246019) can0 09F201EC#0172CE04000060D8
(1611458262.246605) can0 09F201EC#020300FFFFFFFFFF
(1611458262.247188) can0 09F201EC#03000000007EFFFF
(1611458262.251563) can0 1DF21C04#0407000000000000
(1611458262.264469) can0 09F200EC#00000000007FFFFF
(1611458262.365457) can0 09F200EC#00000000007FFFFF
(1611458262.446866) can0 1DFD0906#066A065B00000000
(1611458262.447424) can0 1DFD0806#066A06C700000000
(1611458262.464472) can0 09F200EC#00000000007FFFFF
(1611458262.467739) can0 1DFD0901#0165014B00000000
(1611458262.468303) can0 1DFD0801#016501E500000000
(1611458262.543937) can0 1DF20D01#0151400000000000
(1611458262.544505) can0 1DF01100#E8035C0100000000
(1611458262.545080) can0 1DF01101#E8035C0100000000
(1611458262.545654) can0 1DF20D00#0015500000000000
(1611458262.552162) can0 1DF21C04#0400000000000000
(1611458262.565446) can0 09F200EC#00000000007FFFFF
(1611458262.665454) can0 09F200EC#00000000007FFFFF
(1611458262.745407) can0 09F201EC#201A002800FFFF1F
(1611458262.745980) can0 09F201EC#2172CE04000060D8
(1611458262.746557) can0 09F201EC#220300FFFFFFFFFF
(1611458262.747174) can0 09F201EC#23000000007EFFFF
(1611458262.755146) can0 1DF01104#E803590100000000
(1611458262.755747) can0 1DF20D04#040040FFFFFFFFFF
(1611458262.756309) can0 1DFDA404#045551FFFFFFFFFF
(1611458262.765434) can0 09F200EC#00000000007FFFFF
(1611458262.845421) can0 15F209EC#000900B700FF7FFF
(1611458262.846010) can0 15F209EC#017FFF7FFFFFFFFF
(1611458262.852788) can0 1DF21C04#0401000000000000
(1611458262.866425) can0 09F200EC#00000000007FFFFF
(1611458262.965421) can0 09F200EC#00000000007FFFFF
(1611458263.065433) can0 09F200EC#00000000007FFFFF
(1611458263.153407) can0 1DF21C04#0402000000000000
(1611458263.164404) can0 09F200EC#00000000007FFFFF
(1611458263.245398) can0 09F201EC#401A002800FFFF1F
(1611458263.245941) can0 09F201EC#4172CE04000060D8
(1611458263.246509) can0 09F201EC#420300FFFFFFFFFF
(1611458263.247086) can0 09F201EC#43000000007EFFFF
(1611458263.265398) can0 09F200EC#00000000007FFFFF
(1611458263.365420) can0 09F200EC#00000000007FFFFF
(1611458263.454029) can0 1DF21C04#0403000000000000
(1611458263.465388) can0 09F200EC#00000000007FFFFF
(1611458263.545961) can0 1DF20D01#0151400000000000
(1611458263.546530) can0 1DF01100#E8035D0100000000
(1611458263.547094) can0 1DF01101#E8035D0100000000
(1611458263.547685) can0 1DF20D00#0015500000000000
(1611458263.549103) can0 1DFD0906#066A065B00000000
(1611458263.549649) can0 1DFD0806#066A06C700000000
(1611458263.565374) can0 09F200EC#00000000007FFFFF
(1611458263.569978) can0 1DFD0901#0165014B00000000
(1611458263.570536) can0 1DFD0801#016501E500000000
(1611458263.665366) can0 09F200EC#00000000007FFFFF
(1611458263.745345) can0 09F201EC#601A002800FFFF1F
(1611458263.745899) can0 09F201EC#6172CE04000060D8
(1611458263.746470) can0 09F201EC#620300FFFFFFFFFF
(1611458263.747095) can0 09F201EC#63000000007EFFFF
(1611458263.757221) can0 1DF01104#E8035A0100000000
(1611458263.757807) can0 1DF20D04#040040FFFFFFFFFF
(1611458263.758385) can0 1DF21C04#0404000000000000
(1611458263.758959) can0 1DFDA404#045551FFFFFFFFFF
(1611458263.764359) can0 09F200EC#00000000007FFFFF
(1611458263.845314) can0 15F209EC#200900B700FF7FFF
(1611458263.845906) can0 15F209EC#217FFF7FFFFFFFFF
(1611458263.865364) can0 09F200EC#00000000007FFFFF
(1611458263.965345) can0 09F200EC#00000000007FFFFF
(1611458264.055260) can0 1DF21C04#0405000000000000
(1611458264.066352) can0 09F200EC#00000000007FFFFF
(1611458264.165334) can0 09F200EC#00000000007FFFFF
(1611458264.245305) can0 09F201EC#801A002800FFFF1F
(1611458264.245863) can0 09F201EC#8172CE04000060D8
(1611458264.246445) can0 09F201EC#820300FFFFFFFFFF
(1611458264.247038) can0 09F201EC#83000000007EFFFF
(1611458264.264315) can0 09F200EC#00000000007FFFFF
(1611458264.355865) can0 1DF21C04#0406000000000000
(1611458264.365326) can0 09F200EC#00000000007FFFFF
(1611458264.465316) can0 09F200EC#00000000007FFFFF
(1611458264.547995) can0 1DF20D01#0151400000000000
(1611458264.548562) can0 1DF01100#E8035E0100000000
(1611458264.549130) can0 1DF01101#E8035E0100000000
(1611458264.549712) can0 1DF20D00#0015500000000000
(1611458264.565308) can0 09F200EC#00000000007FFFFF
(1611458264.651329) can0 1DFD0906#066A065B00000000
(1611458264.651948) can0 1DFD0806#066A06C700000000
(1611458264.656486) can0 1DF21C04#0407000000000000
(1611458264.665306) can0 09F200EC#00000000007FFFFF
(1611458264.672218) can0 1DFD0901#0165014B00000000
(1611458264.672783) can0 1DFD0801#016501E500000000
(1611458264.745263) can0 09F201EC#A01A002800FFFF1F
(1611458264.745815) can0 09F201EC#A172CE04000060D8
(1611458264.746386) can0 09F201EC#A20300FFFFFFFFFF
(1611458264.746995) can0 09F201EC#A3000000007EFFFF
(1611458264.759234) can0 1DF01104#E8035B0100000000
(1611458264.759814) can0 1DF20D04#040040FFFFFFFFFF
(1611458264.760390) can0 1DFDA404#045551FFFFFFFFFF
(1611458264.764278) can0 09F200EC#00000000007FFFFF
(1611458264.845269) can0 15F209EC#400900B700FF7FFF
(1611458264.845843) can0 15F209EC#417FFF7FFFFFFFFF
(1611458264.865296) can0 09F200EC#00000000007FFFFF
(1611458264.957109) can0 1DF21C04#0400000000000000
(1611458264.965285) can0 09F200EC#00000000007FFFFF
(1611458265.065273) can0 09F200EC#00000000007FFFFF
(1611458265.165266) can0 09F200EC#00000000007FFFFF
(1611458265.245238) can0 09F201EC#C01A002800FFFF1F
(1611458265.245790) can0 09F201EC#C172CE04000060D8
(1611458265.246357) can0 09F201EC#C20300FFFFFFFFFF
(1611458265.246945) can0 09F201EC#C3000000007EFFFF
(1611458265.257718) can0 1DF21C04#0401000000000000
(1611458265.265263) can0 09F200EC#00000000007FFFFF
(1611458265.365232) can0 09F200EC#00000000007FFFFF
(1611458265.465246) can0 09F200EC#00000000007FFFFF
(1611458265.550021) can0 1DF20D01#0151400000000000
(1611458265.550587) can0 1DF01100#E8035F0100000000
(1611458265.551154) can0 1DF01101#E8035F0100000000
(1611458265.551736) can0 1DF20D00#0015500000000000
(1611458265.558325) can0 1DF21C04#0402000000000000
(1611458265.565231) can0 09F200EC#00000000007FFFFF
(1611458265.665236) can0 09F200EC#00000000007FFFFF
(1611458265.745205) can0 09F201EC#E01A002800FFFF1F
(1611458265.745780) can0 09F201EC#E172CE04000060D8
(1611458265.746338) can0 09F201EC#E20300FFFFFFFFFF
(1611458265.746923) can0 09F201EC#E3000000007EFFFF
(1611458265.753558) can0 1DFD0906#066A065B00000000
(1611458265.754120) can0 1DFD0806#066A06C700000000
(1611458265.761301) can0 1DF01104#E8035C0100000000
(1611458265.761876) can0 1DF20D04#040040FFFFFFFFFF
(1611458265.762779) can0 1DFDA404#045551FFFFFFFFFF
(1611458265.765209) can0 09F200EC#00000000007FFFFF
(1611458265.774434) can0 1DFD0901#0165014B00000000
(1611458265.775003) can0 1DFD0801#016501E500000000
(1611458265.845193) can0 15F209EC#600900B700FF7FFF
(1611458265.845755) can0 15F209EC#617FFF7FFFFFFFFF
(1611458265.858950) can0 1DF21C04#0403000000000000
(1611458265.865211) can0 09F200EC#00000000007FFFFF
(1611458265.965238) can0 09F200EC#00000000007FFFFF
(1611458266.065211) can0 09F200EC#00000000007FFFFF
(1611458266.159552) can0 1DF21C04#0404000000000000
(1611458266.165192) can0 09F200EC#00000000007FFFFF
(1611458266.245167) can0 09F201EC#001A002800FFFF1F
(1611458266.245730) can0 09F201EC#0172CE04000060D8
(1611458266.246338) can0 09F201EC#020300FFFFFFFFFF
(1611458266.246891) can0 09F201EC#03000000007EFFFF
(1611458266.264176) can0 09F200EC#00000000007FFFFF
(1611458266.365164) can0 09F200EC#00000000007FFFFF
(1611458266.460194) can0 1DF21C04#0405000000000000
(1611458266.464169) can0 09F200EC#00000000007FFFFF
(1611458266.552092) can0 1DF20D01#0151400000000000
(1611458266.552627) can0 1DF01100#E803600100000000
(1611458266.553201) can0 1DF01101#E803600100000000
(1611458266.553801) can0 1DF20D00#0015500000000000
(1611458266.565232) can0 09F200EC#00000000007FFFFF
(1611458266.665149) can0 09F200EC#00000000007FFFFF
(1611458266.745130) can0 09F201EC#201A002800FFFF1F
(1611458266.745690) can0 09F201EC#2172CE04000060D8
(1611458266.746272) can0 09F201EC#220300FFFFFFFFFF
(1611458266.746874) can0 09F201EC#23000000007EFFFF
(1611458266.763341) can0 1DF01104#E8035D0100000000
(1611458266.763927) can0 1DF20D04#040040FFFFFFFFFF
(1611458266.764501) can0 1DF21C04#0406000000000000
(1611458266.765081) can0 1DFDA404#045551FFFFFFFFFF
(1611458266.767131) can0 09F200EC#00000000007FFFFF
(1611458266.845121) can0 15F209EC#800900B700FF7FFF
(1611458266.845693) can0 15F209EC#817FFF7FFFFFFFFF
(1611458266.855793) can0 1DFD0906#066A065B00000000
(1611458266.856352) can0 1DFD0806#066A06C700000000
(1611458266.865123) can0 09F200EC#00000000007FFFFF
(1611458266.876692) can0 1DFD0901#0165014B00000000
(1611458266.877252) can0 1DFD0801#016501E500000000
(1611458266.965120) can0 09F200EC#00000000007FFFFF
(1611458267.061416) can0 1DF21C04#0407000000000000
(1611458267.065134) can0 09F200EC#00000000007FFFFF
(1611458267.165118) can0 09F200EC#00000000007FFFFF
(1611458267.245110) can0 09F201EC#401A002800FFFF1F
(1611458267.245678) can0 09F201EC#4172CE04000060D8
(1611458267.246230) can0 09F201EC#420300FFFFFFFFFF
(1611458267.246805) can0 09F201EC#43000000007EFFFF
(1611458267.264106) can0 09F200EC#00000000007FFFFF
(1611458267.362012) can0 1DF21C04#0400000000000000
(1611458267.364126) can0 09F200EC#00000000007FFFFF
(1611458267.465113) can0 09F200EC#00000000007FFFFF
(1611458267.554075) can0 1DF20D01#0151400000000000
(1611458267.554638) can0 1DF01100#E803610100000000
(1611458267.555210) can0 1DF01101#E803610100000000
(1611458267.555793) can0 1DF20D00#0015500000000000
(1611458267.564081) can0 09F200EC#00000000007FFFFF
(1611458267.662673) can0 1DF21C04#0401000000000000
(1611458267.664809) can0 09F200EC#00000000007FFFFF
(1611458267.745058) can0 09F201EC#601A002800FFFF1F
(1611458267.745622) can0 09F201EC#6172CE04000060D8
(1611458267.746199) can0 09F201EC#620300FFFFFFFFFF
(1611458267.746795) can0 09F201EC#63000000007EFFFF
(1611458267.765063) can0 09F200EC#00000000007FFFFF
(1611458267.765636) can0 1DF01104#E8035E0100000000
(1611458267.766223) can0 1DF20D04#040040FFFFFFFFFF
(1611458267.766796) can0 1DFDA404#045551FFFFFFFFFF
(1611458267.845055) can0 15F209EC#A00900B700FF7FFF
(1611458267.845616) can0 15F209EC#A17FFF7FFFFFFFFF
(1611458267.865083) can0 09F200EC#00000000007FFFFF
(1611458267.958026) can0 1DFD0906#066A065B00000000
(1611458267.958583) can0 1DFD0806#066A06C700000000
(1611458267.963248) can0 1DF21C04#0402000000000000
(1611458267.965050) can0 09F200EC#00000000007FFFFF
(1611458267.978915) can0 1DFD0901#0165014B00000000
(1611458267.979478) can0 1DFD0801#016501E500000000
(1611458268.065074) can0 09F200EC#00000000007FFFFF
(1611458268.165035) can0 09F200EC#00000000007FFFFF
(1611458268.245042) can0 09F201EC#801A002800FFFF1F
(1611458268.245591) can0 09F201EC#8172CE04000060D8
(1611458268.246175) can0 09F201EC#820300FFFFFFFFFF
(1611458268.246753) can0 09F201EC#83000000007EFFFF
(1611458268.263870) can0 1DF21C04#0403000000000000
(1611458268.264443) can0 09F200EC#00000000007FFFFF
(1611458268.365055) can0 09F200EC#00000000007FFFFF
(1611458268.465036) can0 09F200EC#00000000007FFFFF
(1611458268.556110) can0 1DF20D01#0151400000000000
(1611458268.556678) can0 1DF01100#E803620100000000
(1611458268.557239) can0 1DF01101#E803620100000000
(1611458268.557854) can0 1DF20D00#0015500000000000
(1611458268.564044) can0 09F200EC#00000000007FFFFF
(1611458268.564599) can0 1DF21C04#0404000000000000
(1611458268.665060) can0 09F200EC#00000000007FFFFF
(1611458268.744985) can0 09F201EC#A01A002800FFFF1F
(1611458268.745533) can0 09F201EC#A172CE04000060D8
(1611458268.746102) can0 09F201EC#A20300FFFFFFFFFF
(1611458268.746703) can0 09F201EC#A3000000007EFFFF
(1611458268.765010) can0 09F200EC#00000000007FFFFF
(1611458268.767461) can0 1DF01104#E8035F0100000000
(1611458268.768041) can0 1DF20D04#040040FFFFFFFFFF
(1611458268.768623) can0 1DFDA404#045551FFFFFFFFFF
(1611458268.844991) can0 15F209EC#C00900B700FF7FFF
(1611458268.845557) can0 15F209EC#C17FFF7FFFFFFFFF
(1611458268.865000) can0 09F200EC#00000000007FFFFF
(1611458268.865575) can0 1DF21C04#0405000000000000
(1611458268.964992) can0 09F200EC#00000000007FFFFF
(1611458269.060332) can0 1DFD0906#066A065B00000000
(1611458269.060818) can0 1DFD0806#066A06C700000000
(1611458269.064973) can0 09F200EC#00000000007FFFFF
(1611458269.081148) can0 1DFD0901#0165014B00000000
(1611458269.081711) can0 1DFD0801#016501E500000000
(1611458269.164960) can0 09F200EC#00000000007FFFFF
(1611458269.165696) can0 1DF21C04#0406000000000000
(1611458269.244949) can0 09F201EC#C01A002800FFFF1F
(1611458269.245501) can0 09F201EC#C172CE04000060D8
(1611458269.246077) can0 09F201EC#C20300FFFFFFFFFF
(1611458269.246663) can0 09F201EC#C3000000007EFFFF
(1611458269.263963) can0 09F200EC#00000000007FFFFF
(1611458269.364950) can0 09F200EC#00000000007FFFFF
(1611458269.464957) can0 09F200EC#00000000007FFFFF
(1611458269.466314) can0 1DF21C04#0407000000000000
(1611458269.558145) can0 1DF20D01#0151400000000000
(1611458269.558699) can0 1DF01100#E803630100000000
(1611458269.559309) can0 1DF01101#E803630100000000
(1611458269.559850) can0 1DF20D00#0015500000000000
(1611458269.564946) can0 09F200EC#00000000007FFFFF
(1611458269.664925) can0 09F200EC#00000000007FFFFF
(1611458269.744914) can0 09F201EC#E01A002800FFFF1F
(1611458269.745460) can0 09F201EC#E172CE04000060D8
(1611458269.746030) can0 09F201EC#E20300FFFFFFFFFF
(1611458269.746633) can0 09F201EC#E3000000007EFFFF
(1611458269.764944) can0 09F200EC#00000000007FFFFF
(1611458269.769541) can0 1DF01104#E803600100000000
(1611458269.770089) can0 1DF20D04#040040FFFFFFFFFF
(1611458269.770726) can0 1DF21C04#0400000000000000
(1611458269.771249) can0 1DFDA404#045551FFFFFFFFFF
(1611458269.844899) can0 15F209EC#E00900B700FF7FFF
(1611458269.845470) can0 15F209EC#E17FFF7FFFFFFFFF
(1611458269.864924) can0 09F200EC#00000000007FFFFF
(1611458269.964926) can0 09F200EC#00000000007FFFFF
(1611458270.064914) can0 09F200EC#00000000007FFFFF
(1611458270.067552) can0 1DF21C04#0401000000000000
(1611458270.162482) can0 1DFD0906#066A065B00000000
(1611458270.163040) can0 1DFD0806#066A06C700000000
(1611458270.164887) can0 09F200EC#00000000007FFFFF
(1611458270.183389) can0 1DFD0901#0165014B00000000
(1611458270.183943) can0 1DFD0801#016501E500000000
(1611458270.244896) can0 09F201EC#001A002800FFFF1F
(1611458270.245451) can0 09F201EC#0172CE04000060D8
(1611458270.246030) can0 09F201EC#020300FFFFFFFFFF
(1611458270.246625) can0 09F201EC#03000000007EFFFF
(1611458270.263891) can0 09F200EC#00000000007FFFFF
(1611458270.364897) can0 09F200EC#00000000007FFFFF
(1611458270.368168) can0 1DF21C04#0402000000000000
(1611458270.464869) can0 09F200EC#00000000007FFFFF
(1611458270.560156) can0 1DF20D01#0151400000000000
(1611458270.560716) can0 1DF01100#E803640100000000
(1611458270.561279) can0 1DF01101#E803640100000000
(1611458270.561862) can0 1DF20D00#0015500000000000
(1611458270.564731) can0 09F200EC#00000000007FFFFF
(1611458270.664877) can0 09F200EC#00000000007FFFFF
(1611458270.668764) can0 1DF21C04#0403000000000000
(1611458270.744861) can0 09F201EC#201A002800FFFF1F
(1611458270.745413) can0 09F201EC#2172CE04000060D8
(1611458270.745992) can0 09F201EC#220300FFFFFFFFFF
(1611458270.746684) can0 09F201EC#23000000007EFFFF
(1611458270.764853) can0 09F200EC#00000000007FFFFF
(1611458270.771551) can0 1DF01104#E803610100000000
(1611458270.772128) can0 1DF20D04#040040FFFFFFFFFF
(1611458270.772709) can0 1DFDA404#045551FFFFFFFFFF
(1611458270.844831) can0 15F209EC#000900B700FF7FFF
(1611458270.845418) can0 15F209EC#017FFF7FFFFFFFFF
(1611458270.864861) can0 09F200EC#00000000007FFFFF
(1611458270.964858) can0 09F200EC#00000000007FFFFF
(1611458270.969403) can0 1DF21C04#0404000000000000
(1611458271.064836) can0 09F200EC#00000000007FFFFF
(1611458271.164825) can0 09F200EC#00000000007FFFFF
(1611458271.244806) can0 09F201EC#401A002800FFFF1F
(1611458271.245360) can0 09F201EC#4172CE04000060D8
(1611458271.245930) can0 09F201EC#420300FFFFFFFFFF
(1611458271.246512) can0 09F201EC#43000000007EFFFF
(1611458271.263830) can0 09F200EC#00000000007FFFFF
(1611458271.264710) can0 1DFD0906#066A065B00000000
(1611458271.265272) can0 1DFD0806#066A06C700000000
(1611458271.270006) can0 1DF21C04#0405000000000000
(1611458271.285626) can0 1DFD0901#0165014B00000000
(1611458271.286185) can0 1DFD0801#016501E500000000
(1611458271.364828) can0 09F200EC#00000000007FFFFF
(1611458271.464806) can0 09F200EC#00000000007FFFFF
(1611458271.562190) can0 1DF20D01#0151400000000000
(1611458271.562763) can0 1DF01100#E803650100000000
(1611458271.563326) can0 1DF01101#E803650100000000
(1611458271.563907) can0 1DF20D00#0015500000000000
(1611458271.565796) can0 09F200EC#00000000007FFFFF
(1611458271.570606) can0 1DF21C04#0406000000000000
(1611458271.664793) can0 09F200EC#00000000007FFFFF
(1611458271.744774) can0 09F201EC#601A002800FFFF1F
(1611458271.745324) can0 09F201EC#6172CE04000060D8
(1611458271.745903) can0 09F201EC#620300FFFFFFFFFF
(1611458271.746509) can0 09F201EC#63000000007EFFFF
(1611458271.764785) can0 09F200EC#00000000007FFFFF
(1611458271.773597) can0 1DF01104#E803620100000000
(1611458271.774181) can0 1DF20D04#040040FFFFFFFFFF
(1611458271.774757) can0 1DFDA404#045551FFFFFFFFFF
(1611458271.844767) can0 15F209EC#200900B700FF7FFF
(1611458271.845365) can0 15F209EC#217FFF7FFFFFFFFF
(1611458271.864781) can0 09F200EC#00000000007FFFFF
(1611458271.871253) can0 1DF21C04#0407000000000000
(1611458271.964776) can0 09F200EC#00000000007FFFFF
(1611458272.064767) can0 09F200EC#00000000007FFFFF
(1611458272.164754) can0 09F200EC#00000000007FFFFF
(1611458272.171841) can0 1DF21C04#0400000000000000
(1611458272.244737) can0 09F201EC#801A002800FFFF1F
(1611458272.245292) can0 09F201EC#8172CE04000060D8
(1611458272.245869) can0 09F201EC#820300FFFFFFFFFF
(1611458272.246453) can0 09F201EC#83000000007EFFFF
(1611458272.263744) can0 09F200EC#00000000007FFFFF
(1611458272.364738) can0 09F200EC#00000000007FFFFF
(1611458272.366939) can0 1DFD0906#066A065B00000000
(1611458272.367503) can0 1DFD0806#066A06C700000000
(1611458272.387842) can0 1DFD0901#0165014B00000000
(1611458272.388416) can0 1DFD0801#016501E500000000
(1611458272.464752) can0 09F200EC#00000000007FFFFF
(1611458272.472466) can0 1DF21C04#0401000000000000
(1611458272.564220) can0 1DF20D01#0151400000000000
(1611458272.564798) can0 09F200EC#00000000007FFFFF
(1611458272.565367) can0 1DF01100#E803660100000000
(1611458272.565935) can0 1DF01101#E803660100000000
(1611458272.566516) can0 1DF20D00#0015500000000000
(1611458272.664707) can0 09F200EC#00000000007FFFFF
(1611458272.744710) can0 09F201EC#A01A002800FFFF1F
(1611458272.745242) can0 09F201EC#A172CE04000060D8
(1611458272.745813) can0 09F201EC#A20300FFFFFFFFFF
(1611458272.746426) can0 09F201EC#A3000000007EFFFF
(1611458272.764747) can0 09F200EC#00000000007FFFFF
(1611458272.775654) can0 1DF01104#E803630100000000
(1611458272.776237) can0 1DF20D04#040040FFFFFFFFFF
(1611458272.776817) can0 1DF21C04#0402000000000000
(1611458272.777397) can0 1DFDA404#045551FFFFFFFFFF
(1611458272.844684) can0 15F209EC#400900B700FF7FFF
(1611458272.845262) can0 15F209EC#417FFF7FFFFFFFFF
(1611458272.864701) can0 09F200EC#00000000007FFFFF
(1611458272.964690) can0 09F200EC#00000000007FFFFF
(1611458273.064690) can0 09F200EC#00000000007FFFFF
(1611458273.073709) can0 1DF21C04#0403000000000000
(1611458273.164683) can0 09F200EC#00000000007FFFFF
(1611458273.244661) can0 09F201EC#C01A002800FFFF1F
(1611458273.245211) can0 09F201EC#C172CE04000060D8
(1611458273.245789) can0 09F201EC#C20300FFFFFFFFFF
(1611458273.246380) can0 09F201EC#C3000000007EFFFF
(1611458273.263691) can0 09F200EC#00000000007FFFFF
(1611458273.364684) can0 09F200EC#00000000007FFFFF
(1611458273.374307) can0 1DF21C04#0404000000000000
(1611458273.464660) can0 09F200EC#00000000007FFFFF
(1611458273.469193) can0 1DFD0906#066A065B00000000
(1611458273.469735) can0 1DFD0806#066A06C700000000
(1611458273.490098) can0 1DFD0901#0165014B00000000
(1611458273.490649) can0 1DFD0801#016501E500000000
(1611458273.564666) can0 09F200EC#00000000007FFFFF
(1611458273.566236) can0 1DF20D01#0151400000000000
(1611458273.566807) can0 1DF01100#E803670100000000
(1611458273.567375) can0 1DF01101#E803670100000000
(1611458273.567958) can0 1DF20D00#0015500000000000
(1611458273.664659) can0 09F200EC#00000000007FFFFF
(1611458273.674932) can0 1DF21C04#0405000000000000
(1611458273.744639) can0 09F201EC#E01A002800FFFF1F
(1611458273.745186) can0 09F201EC#E172CE04000060D8
(1611458273.745755) can0 09F201EC#E20300FFFFFFFFFF
(1611458273.746363) can0 09F201EC#E3000000007EFFFF
(1611458273.764653) can0 09F200EC#00000000007FFFFF
(1611458273.777711) can0 1DF01104#E803640100000000
(1611458273.778286) can0 1DF20D04#040040FFFFFFFFFF
(1611458273.778863) can0 1DFDA404#045551FFFFFFFFFF
(1611458273.844622) can0 15F209EC#600900B700FF7FFF
(1611458273.845195) can0 15F209EC#617FFF7FFFFFFFFF
(1611458273.864634) can0 09F200EC#00000000007FFFFF
(1611458273.964637) can0 09F200EC#00000000007FFFFF
(1611458273.975527) can0 1DF21C04#0406000000000000
(1611458274.064621) can0 09F200EC#00000000007FFFFF
(1611458274.164612) can0 09F200EC#00000000007FFFFF
(1611458274.244602) can0 09F201EC#001A002800FFFF1F
(1611458274.245164) can0 09F201EC#0172CE04000060D8
(1611458274.245749) can0 09F201EC#020300FFFFFFFFFF
(1611458274.246320) can0 09F201EC#03000000007EFFFF
(1611458274.263624) can0 09F200EC#00000000007FFFFF
(1611458274.276159) can0 1DF21C04#0407000000000000
(1611458274.364596) can0 09F200EC#00000000007FFFFF
(1611458274.464602) can0 09F200EC#00000000007FFFFF
(1611458274.564595) can0 09F200EC#00000000007FFFFF
(1611458274.568264) can0 1DF20D01#0151400000000000
(1611458274.568837) can0 1DF01100#E803680100000000
(1611458274.569407) can0 1DF01101#E803680100000000
(1611458274.569989) can0 1DF20D00#0015500000000000
(1611458274.571404) can0 1DFD0906#066A065B00000000
(1611458274.571984) can0 1DFD0806#066A06C700000000
(1611458274.576767) can0 1DF21C04#0400000000000000
(1611458274.592323) can0 1DFD0901#0165014B00000000
(1611458274.592888) can0 1DFD0801#016501E500000000
(1611458274.664588) can0 09F200EC#00000000007FFFFF
(1611458274.744559) can0 09F201EC#201A002800FFFF1F
(1611458274.745113) can0 09F201EC#2172CE04000060D8
(1611458274.745690) can0 09F201EC#220300FFFFFFFFFF
(1611458274.746300) can0 09F201EC#23000000007EFFFF
(1611458274.764567) can0 09F200EC#00000000007FFFFF
(1611458274.779731) can0 1DF01104#E803650100000000
(1611458274.780317) can0 1DF20D04#040040FFFFFFFFFF
(1611458274.780903) can0 1DFDA404#045551FFFFFFFFFF
(1611458274.844552) can0 15F209EC#800900B700FF7FFF
(1611458274.845123) can0 15F209EC#817FFF7FFFFFFFFF
(1611458274.864559) can0 09F200EC#00000000007FFFFF
(1611458274.877364) can0 1DF21C04#0401000000000000
(1611458274.964557) can0 09F200EC#00000000007FFFFF
(1611458275.064573) can0 09F200EC#00000000007FFFFF
(1611458275.164543) can0 09F200EC#00000000007FFFFF
(1611458275.178011) can0 1DF21C04#0402000000000000
(1611458275.244515) can0 09F201EC#401A002800FFFF1F
(1611458275.245070) can0 09F201EC#4172CE04000060D8
(1611458275.245644) can0 09F201EC#420300FFFFFFFFFF
(1611458275.246218) can0 09F201EC#43000000007EFFFF
(1611458275.263543) can0 09F200EC#00000000007FFFFF
(1611458275.364532) can0 09F200EC#00000000007FFFFF
(1611458275.464518) can0 09F200EC#00000000007FFFFF
(1611458275.478619) can0 1DF21C04#0403000000000000
(1611458275.564516) can0 09F200EC#00000000007FFFFF
(1611458275.570281) can0 1DF20D01#0151400000000000
(1611458275.570849) can0 1DF01100#E803690100000000
(1611458275.571423) can0 1DF01101#E803690100000000
(1611458275.572003) can0 1DF20D00#0015500000000000
(1611458275.664522) can0 09F200EC#00000000007FFFFF
(1611458275.673646) can0 1DFD0906#066A065B00000000
(1611458275.674200) can0 1DFD0806#066A06C700000000
(1611458275.694560) can0 1DFD0901#0165014B00000000
(1611458275.695123) can0 1DFD0801#016501E500000000
(1611458275.744489) can0 09F201EC#601A002800FFFF1F
(1611458275.745040) can0 09F201EC#6172CE04000060D8
(1611458275.745608) can0 09F201EC#620300FFFFFFFFFF
(1611458275.746214) can0 09F201EC#63000000007EFFFF
(1611458275.764506) can0 09F200EC#00000000007FFFFF
(1611458275.781793) can0 1DF01104#E803660100000000
(1611458275.782378) can0 1DF20D04#040040FFFFFFFFFF
(1611458275.782962) can0 1DF21C04#0404000000000000
(1611458275.783537) can0 1DFDA404#045551FFFFFFFFFF
(1611458275.844468) can0 15F209EC#A00900B700FF7FFF
(1611458275.845039) can0 15F209EC#A17FFF7FFFFFFFFF
(1611458275.864500) can0 09F200EC#00000000007FFFFF
(1611458275.964486) can0 09F200EC#00000000007FFFFF
(1611458276.064477) can0 09F200EC#00000000007FFFFF
(1611458276.079855) can0 1DF21C04#0405000000000000
(1611458276.164467) can0 09F200EC#00000000007FFFFF
(1611458276.244455) can0 09F201EC#801A002800FFFF1F
(1611458276.245005) can0 09F201EC#8172CE04000060D8
(1611458276.245583) can0 09F201EC#820300FFFFFFFFFF
(1611458276.246225) can0 09F201EC#83000000007EFFFF
(1611458276.263472) can0 09F200EC#00000000007FFFFF
(1611458276.364456) can0 09F200EC#00000000007FFFFF
(1611458276.380454) can0 1DF21C04#0406000000000000
(1611458276.464456) can0 09F200EC#00000000007FFFFF
(1611458276.564439) can0 09F200EC#00000000007FFFFF
(1611458276.572305) can0 1DF20D01#0151400000000000
(1611458276.572878) can0 1DF01100#E8036A0100000000
(1611458276.573443) can0 1DF01101#E8036A0100000000
(1611458276.574025) can0 1DF20D00#0015500000000000
(1611458276.664439) can0 09F200EC#00000000007FFFFF
(1611458276.681069) can0 1DF21C04#0407000000000000
(1611458276.744427) can0 09F201EC#A01A002800FFFF1F
(1611458276.744957) can0 09F201EC#A172CE04000060D8
(1611458276.745530) can0 09F201EC#A20300FFFFFFFFFF
(1611458276.746134) can0 09F201EC#A3000000007EFFFF
(1611458276.764429) can0 09F200EC#00000000007FFFFF
(1611458276.775873) can0 1DFD0906#066A065B00000000
(1611458276.776436) can0 1DFD0806#066A06C700000000
(1611458276.783822) can0 1DF01104#E803670100000000
(1611458276.784410) can0 1DF20D04#040040FFFFFFFFFF
(1611458276.784984) can0 1DFDA404#045551FFFFFFFFFF
(1611458276.796795) can0 1DFD0901#0165014B00000000
(1611458276.797355) can0 1DFD0801#016501E500000000
(1611458276.844403) can0 15F209EC#C00900B700FF7FFF
(1611458276.844974) can0 15F209EC#C17FFF7FFFFFFFFF
(1611458276.864416) can0 09F200EC#00000000007FFFFF
(1611458276.964426) can0 09F200EC#00000000007FFFFF
(1611458276.981704) can0 1DF21C04#0400000000000000
(1611458277.064416) can0 09F200EC#00000000007FFFFF
(1611458277.164405) can0 09F200EC#00000000007FFFFF
(1611458277.244372) can0 09F201EC#C01A002800FFFF1F
(1611458277.244925) can0 09F201EC#C172CE04000060D8
(1611458277.245497) can0 09F201EC#C20300FFFFFFFFFF
(1611458277.246076) can0 09F201EC#C3000000007EFFFF
(1611458277.263430) can0 09F200EC#00000000007FFFFF
(1611458277.282301) can0 1DF21C04#0401000000000000
(1611458277.364391) can0 09F200EC#00000000007FFFFF
(1611458277.464376) can0 09F200EC#00000000007FFFFF
(1611458277.564367) can0 09F200EC#00000000007FFFFF
(1611458277.574337) can0 1DF20D01#0151400000000000
(1611458277.574908) can0 1DF01100#E8036B0100000000
(1611458277.575477) can0 1DF01101#E8036B0100000000
(1611458277.576077) can0 1DF20D00#0015500000000000
(1611458277.582900) can0 1DF21C04#0402000000000000
(1611458277.664377) can0 09F200EC#00000000007FFFFF
(1611458277.744345) can0 09F201EC#E01A002800FFFF1F
(1611458277.744889) can0 09F201EC#E172CE04000060D8
(1611458277.745458) can0 09F201EC#E20300FFFFFFFFFF
(1611458277.746056) can0 09F201EC#E3000000007EFFFF
(1611458277.764348) can0 09F200EC#00000000007FFFFF
(1611458277.785878) can0 1DF01104#E803680100000000
(1611458277.786475) can0 1DF20D04#040040FFFFFFFFFF
(1611458277.787045) can0 1DFDA404#045551FFFFFFFFFF
(1611458277.844325) can0 15F209EC#E00900B700FF7FFF
(1611458277.844893) can0 15F209EC#E17FFF7FFFFFFFFF
(1611458277.864342) can0 09F200EC#00000000007FFFFF
(1611458277.878103) can0 1DFD0906#066A065B00000000
(1611458277.878664) can0 1DFD0806#066A06C700000000
(1611458277.883535) can0 1DF21C04#0403000000000000
(1611458277.899035) can0 1DFD0901#0165014B00000000
(1611458277.899602) can0 1DFD0801#016501E500000000
(1611458277.964333) can0 09F200EC#00000000007FFFFF
(1611458278.064330) can0 09F200EC#00000000007FFFFF
(1611458278.164329) can0 09F200EC#00000000007FFFFF
(1611458278.184151) can0 1DF21C04#0404000000000000
(1611458278.244306) can0 09F201EC#001A002800FFFF1F
(1611458278.244883) can0 09F201EC#0172CE04000060D8
(1611458278.245444) can0 09F201EC#020300FFFFFFFFFF
(1611458278.246107) can0 09F201EC#03000000007EFFFF
(1611458278.263320) can0 09F200EC#00000000007FFFFF
(1611458278.364318) can0 09F200EC#00000000007FFFFF
(1611458278.464302) can0 09F200EC#00000000007FFFFF
(1611458278.484772) can0 1DF21C04#0405000000000000
(1611458278.564296) can0 09F200EC#00000000007FFFFF
(1611458278.576363) can0 1DF20D01#0151400000000000
(1611458278.576929) can0 1DF01100#E8036C0100000000
(1611458278.577492) can0 1DF01101#E8036C0100000000
(1611458278.578074) can0 1DF20D00#0015500000000000
(1611458278.664294) can0 09F200EC#00000000007FFFFF
(1611458278.744271) can0 09F201EC#201A002800FFFF1F
(1611458278.744830) can0 09F201EC#2172CE04000060D8
(1611458278.745405) can0 09F201EC#220300FFFFFFFFFF
(1611458278.746007) can0 09F201EC#23000000007EFFFF
(1611458278.764281) can0 09F200EC#00000000007FFFFF
(1611458278.787940) can0 1DF01104#E803690100000000
(1611458278.788519) can0 1DF20D04#040040FFFFFFFFFF
(1611458278.789098) can0 1DF21C04#0406000000000000
(1611458278.789683) can0 1DFDA404#045551FFFFFFFFFF
(1611458278.844263) can0 15F209EC#000900B700FF7FFF
(1611458278.844845) can0 15F209EC#017FFF7FFFFFFFFF
(1611458278.864297) can0 09F200EC#00000000007FFFFF
(1611458278.964272) can0 09F200EC#00000000007FFFFF
(1611458278.980341) can0 1DFD0906#066A065B00000000
(1611458278.980893) can0 1DFD0806#066A06C700000000
(1611458279.001267) can0 1DFD0901#0165014B00000000
(1611458279.001831) can0 1DFD0801#016501E500000000
(1611458279.064271) can0 09F200EC#00000000007FFFFF
(1611458279.086000) can0 1DF21C04#0407000000000000
(1611458279.164247) can0 09F200EC#00000000007FFFFF
(1611458279.244235) can0 09F201EC#401A002800FFFF1F
(1611458279.244783) can0 09F201EC#4172CE04000060D8
(1611458279.245359) can0 09F201EC#420300FFFFFFFFFF
(1611458279.245934) can0 09F201EC#43000000007EFFFF
(1611458279.263244) can0 09F200EC#00000000007FFFFF
(1611458279.364236) can0 09F200EC#00000000007FFFFF
(1611458279.386612) can0 1DF21C04#0400000000000000
(1611458279.464228) can0 09F200EC#00000000007FFFFF
(1611458279.564231) can0 09F200EC#00000000007FFFFF
(1611458279.578392) can0 1DF20D01#0151400000000000
(1611458279.578966) can0 1DF01100#E8036D0100000000
(1611458279.579520) can0 1DF01101#E8036D0100000000
(1611458279.580129) can0 1DF20D00#0015500000000000
(1611458279.664218) can0 09F200EC#00000000007FFFFF
(1611458279.687216) can0 1DF21C04#0401000000000000
(1611458279.744204) can0 09F201EC#601A002800FFFF1F
(1611458279.744751) can0 09F201EC#6172CE04000060D8
(1611458279.745318) can0 09F201EC#620300FFFFFFFFFF
(1611458279.745928) can0 09F201EC#63000000007EFFFF
(1611458279.764209) can0 09F200EC#00000000007FFFFF
(1611458279.790039) can0 1DF01104#E8036A0100000000
(1611458279.790572) can0 1DF20D04#040040FFFFFFFFFF
(1611458279.791149) can0 1DFDA404#045551FFFFFFFFFF
(1611458279.844187) can0 15F209EC#200900B700FF7FFF
(1611458279.844756) can0 15F209EC#217FFF7FFFFFFFFF
(1611458279.864203) can0 09F200EC#00000000007FFFFF
(1611458279.964196) can0 09F200EC#00000000007FFFFF
(1611458279.987842) can0 1DF21C04#0402000000000000
(1611458280.064179) can0 09F200EC#00000000007FFFFF
(1611458280.082570) can0 1DFD0906#066A065B00000000
(1611458280.083126) can0 1DFD0806#066A06C700000000
(1611458280.103518) can0 1DFD0901#0165014B00000000
(1611458280.104072) can0 1DFD0801#016501E500000000
(1611458280.164176) can0 09F200EC#00000000007FFFFF
(1611458280.244173) can0 09F201EC#801A002800FFFF1F
(1611458280.244723) can0 09F201EC#8172CE04000060D8
(1611458280.245309) can0 09F201EC#820300FFFFFFFFFF
(1611458280.245893) can0 09F201EC#83000000007EFFFF
(1611458280.263175) can0 09F200EC#00000000007FFFFF
(1611458280.288443) can0 1DF21C04#0403000000000000
(1611458280.364165) can0 09F200EC#00000000007FFFFF
(1611458280.464437) can0 09F200EC#00000000007FFFFF
(1611458280.564158) can0 09F200EC#00000000007FFFFF
(1611458280.580413) can0 1DF20D01#0151400000000000
(1611458280.580986) can0 1DF01100#E8036E0100000000
(1611458280.581548) can0 1DF01101#E8036E0100000000
(1611458280.582128) can0 1DF20D00#0015500000000000
(1611458280.589059) can0 1DF21C04#0404000000000000
(1611458280.664151) can0 09F200EC#00000000007FFFFF
(1611458280.744121) can0 09F201EC#A01A002800FFFF1F
(1611458280.744665) can0 09F201EC#A172CE04000060D8
(1611458280.745238) can0 09F201EC#A20300FFFFFFFFFF
(1611458280.745848) can0 09F201EC#A3000000007EFFFF
(1611458280.764137) can0 09F200EC#00000000007FFFFF
(1611458280.792038) can0 1DF01104#E8036B0100000000
(1611458280.792624) can0 1DF20D04#040040FFFFFFFFFF
(1611458280.793193) can0 1DFDA404#045551FFFFFFFFFF
(1611458280.844125) can0 15F209EC#400900B700FF7FFF
(1611458280.844687) can0 15F209EC#417FFF7FFFFFFFFF
(1611458280.864127) can0 09F200EC#00000000007FFFFF
(1611458280.889673) can0 1DF21C04#0405000000000000
(1611458280.964161) can0 09F200EC#00000000007FFFFF
(1611458281.064138) can0 09F200EC#00000000007FFFFF
(1611458281.164119) can0 09F200EC#00000000007FFFFF
(1611458281.184797) can0 1DFD0906#066A065B00000000
(1611458281.185360) can0 1DFD0806#066A06C700000000
(1611458281.190284) can0 1DF21C04#0406000000000000
(1611458281.205734) can0 1DFD0901#0165014B00000000
(1611458281.206296) can0 1DFD0801#016501E500000000
(1611458281.244104) can0 09F201EC#C01A002800FFFF1F
(1611458281.244657) can0 09F201EC#C172CE04000060D8
(1611458281.245222) can0 09F201EC#C20300FFFFFFFFFF
(1611458281.245798) can0 09F201EC#C3000000007EFFFF
(1611458281.263099) can0 09F200EC#00000000007FFFFF
(1611458281.364128) can0 09F200EC#00000000007FFFFF
(1611458281.464098) can0 09F200EC#00000000007FFFFF
(1611458281.490893) can0 1DF21C04#0407000000000000
(1611458281.564086) can0 09F200EC#00000000007FFFFF
(1611458281.582440) can0 1DF20D01#0151400000000000
(1611458281.583011) can0 1DF01100#E8036F0100000000
(1611458281.583582) can0 1DF01101#E8036F0100000000
(1611458281.584165) can0 1DF20D00#0015500000000000
(1611458281.664104) can0 09F200EC#00000000007FFFFF
(1611458281.744051) can0 09F201EC#E01A002800FFFF1F
(1611458281.744598) can0 09F201EC#E172CE04000060D8
(1611458281.745183) can0 09F201EC#E20300FFFFFFFFFF
(1611458281.745782) can0 09F201EC#E3000000007EFFFF
(1611458281.764070) can0 09F200EC#00000000007FFFFF
(1611458281.794091) can0 1DF01104#E8036C0100000000
(1611458281.794664) can0 1DF20D04#040040FFFFFFFFFF
(1611458281.795243) can0 1DF21C04#0400000000000000
(1611458281.795825) can0 1DFDA404#045551FFFFFFFFFF
(1611458281.844042) can0 15F209EC#600900B700FF7FFF
(1611458281.844606) can0 15F209EC#617FFF7FFFFFFFFF
(1611458281.864054) can0 09F200EC#00000000007FFFFF
(1611458281.964057) can0 09F200EC#00000000007FFFFF
(1611458282.064050) can0 09F200EC#00000000007FFFFF
(1611458282.092123) can0 1DF21C04#0401000000000000
(1611458282.164049) can0 09F200EC#00000000007FFFFF
(1611458282.244031) can0 09F201EC#001A002800FFFF1F
(1611458282.244585) can0 09F201EC#0172CE04000060D8
(1611458282.245173) can0 09F201EC#020300FFFFFFFFFF
(1611458282.245758) can0 09F201EC#03000000007EFFFF
(1611458282.263036) can0 09F200EC#00000000007FFFFF
(1611458282.287027) can0 1DFD0906#066A065B00000000
(1611458282.287584) can0 1DFD0806#066A06C700000000
(1611458282.307968) can0 1DFD0901#0165014B00000000
(1611458282.308546) can0 1DFD0801#016501E500000000
(1611458282.364025) can0 09F200EC#00000000007FFFFF
(1611458282.392744) can0 1DF21C04#0402000000000000
(1611458282.464016) can0 09F200EC#00000000007FFFFF
(1611458282.564008) can0 09F200EC#00000000007FFFFF
(1611458282.584472) can0 1DF20D01#0151400000000000
(1611458282.585045) can0 1DF01100#E803700100000000
(1611458282.585614) can0 1DF01101#E803700100000000
(1611458282.586196) can0 1DF20D00#0015500000000000
(1611458282.664001) can0 09F200EC#00000000007FFFFF
(1611458282.693362) can0 1DF21C04#0403000000000000
(1611458282.743979) can0 09F201EC#201A002800FFFF1F
(1611458282.744537) can0 09F201EC#2172CE04000060D8
(1611458282.745113) can0 09F201EC#220300FFFFFFFFFF
(1611458282.745724) can0 09F201EC#23000000007EFFFF
(1611458282.763990) can0 09F200EC#00000000007FFFFF
(1611458282.796133) can0 1DF01104#E8036D0100000000
(1611458282.796718) can0 1DF20D04#040040FFFFFFFFFF
(1611458282.797288) can0 1DFDA404#045551FFFFFFFFFF
(1611458282.843967) can0 15F209EC#800900B700FF7FFF
(1611458282.844545) can0 15F209EC#817FFF7FFFFFFFFF
(1611458282.863988) can0 09F200EC#00000000007FFFFF
(1611458282.963992) can0 09F200EC#00000000007FFFFF
(1611458282.993969) can0 1DF21C04#0404000000000000
(1611458283.063984) can0 09F200EC#00000000007FFFFF
(1611458283.163977) can0 09F200EC#00000000007FFFFF
(1611458283.243953) can0 09F201EC#401A002800FFFF1F
(1611458283.244508) can0 09F201EC#4172CE04000060D8
(1611458283.245093) can0 09F201EC#420300FFFFFFFFFF
(1611458283.245668) can0 09F201EC#43000000007EFFFF
(1611458283.262956) can0 09F200EC#00000000007FFFFF
(1611458283.294592) can0 1DF21C04#0405000000000000
(1611458283.363961) can0 09F200EC#00000000007FFFFF
(1611458283.389261) can0 1DFD0906#066A065B00000000
(1611458283.389823) can0 1DFD0806#066A06C700000000
(1611458283.410217) can0 1DFD0901#0165014B00000000
(1611458283.410770) can0 1DFD0801#016501E500000000
(1611458283.463950) can0 09F200EC#00000000007FFFFF
(1611458283.563939) can0 09F200EC#00000000007FFFFF
(1611458283.586531) can0 1DF20D01#0151400000000000
(1611458283.587067) can0 1DF01100#E803710100000000
(1611458283.587638) can0 1DF01101#E803710100000000
(1611458283.588225) can0 1DF20D00#0015500000000000
(1611458283.595187) can0 1DF21C04#0406000000000000
(1611458283.663939) can0 09F200EC#00000000007FFFFF
(1611458283.743924) can0 09F201EC#601A002800FFFF1F
(1611458283.744474) can0 09F201EC#6172CE04000060D8
(1611458283.745071) can0 09F201EC#620300FFFFFFFFFF
(1611458283.745655) can0 09F201EC#63000000007EFFFF
(1611458283.763928) can0 09F200EC#00000000007FFFFF
(1611458283.798169) can0 1DF01104#E8036E0100000000
(1611458283.798747) can0 1DF20D04#040040FFFFFFFFFF
(1611458283.799316) can0 1DFDA404#045551FFFFFFFFFF
(1611458283.844134) can0 15F209EC#A00900B700FF7FFF
(1611458283.844686) can0 15F209EC#A17FFF7FFFFFFFFF
(1611458283.863908) can0 09F200EC#00000000007FFFFF
(1611458283.895831) can0 1DF21C04#0407000000000000
(1611458283.963904) can0 09F200EC#00000000007FFFFF
(1611458284.063899) can0 09F200EC#00000000007FFFFF
(1611458284.163906) can0 09F200EC#00000000007FFFFF
(1611458284.196436) can0 1DF21C04#0400000000000000
(1611458284.243879) can0 09F201EC#801A002800FFFF1F
(1611458284.244432) can0 09F201EC#8172CE04000060D8
(1611458284.245022) can0 09F201EC#820300FFFFFFFFFF
(1611458284.245595) can0 09F201EC#83000000007EFFFF
(1611458284.262879) can0 09F200EC#00000000007FFFFF
(1611458284.363877) can0 09F200EC#00000000007FFFFF
(1611458284.463875) can0 09F200EC#00000000007FFFFF
(1611458284.491492) can0 1DFD0906#066A065B00000000
(1611458284.492048) can0 1DFD0806#066A06C700000000
(1611458284.497049) can0 1DF21C04#0401000000000000
(1611458284.512452) can0 1DFD0901#0165014B00000000
(1611458284.513003) can0 1DFD0801#016501E500000000
(1611458284.563864) can0 09F200EC#00000000007FFFFF
(1611458284.588531) can0 1DF20D01#0151400000000000
(1611458284.589088) can0 1DF01100#E803720100000000
(1611458284.589678) can0 1DF01101#E803720100000000
(1611458284.590239) can0 1DF20D00#0015500000000000
(1611458284.663858) can0 09F200EC#00000000007FFFFF
(1611458284.743836) can0 09F201EC#A01A002800FFFF1F
(1611458284.744386) can0 09F201EC#A172CE04000060D8
(1611458284.744958) can0 09F201EC#A20300FFFFFFFFFF
(1611458284.745560) can0 09F201EC#A3000000007EFFFF
(1611458284.763850) can0 09F200EC#00000000007FFFFF
(1611458284.800222) can0 1DF01104#E8036F0100000000
(1611458284.800816) can0 1DF20D04#040040FFFFFFFFFF
(1611458284.801382) can0 1DF21C04#0402000000000000
(1611458284.801981) can0 1DFDA404#045551FFFFFFFFFF
(1611458284.843822) can0 15F209EC#C00900B700FF7FFF
(1611458284.844393) can0 15F209EC#C17FFF7FFFFFFFFF
(1611458284.863849) can0 09F200EC#00000000007FFFFF
(1611458284.963839) can0 09F200EC#00000000007FFFFF
(1611458285.063842) can0 09F200EC#00000000007FFFFF
(1611458285.098278) can0 1DF21C04#0403000000000000
(1611458285.163821) can0 09F200EC#00000000007FFFFF
(1611458285.243804) can0 09F201EC#C01A002800FFFF1F
(1611458285.244351) can0 09F201EC#C172CE04000060D8
(1611458285.244930) can0 09F201EC#C20300FFFFFFFFFF
(1611458285.245520) can0 09F201EC#C3000000007EFFFF
(1611458285.262816) can0 09F200EC#00000000007FFFFF
(1611458285.363823) can0 09F200EC#00000000007FFFFF
(1611458285.398890) can0 1DF21C04#0404000000000000
(1611458285.463803) can0 09F200EC#00000000007FFFFF
(1611458285.563795) can0 09F200EC#00000000007FFFFF
(1611458285.590549) can0 1DF20D01#0151400000000000
(1611458285.591127) can0 1DF01100#E803730100000000
(1611458285.591755) can0 1DF01101#E803730100000000
(1611458285.592295) can0 1DF20D00#0015500000000000
(1611458285.593728) can0 1DFD0906#066A065B00000000
(1611458285.594291) can0 1DFD0806#066A06C700000000
(1611458285.614678) can0 1DFD0901#0165014B00000000
(1611458285.615237) can0 1DFD0801#016501E500000000
(1611458285.663789) can0 09F200EC#00000000007FFFFF
(1611458285.699501) can0 1DF21C04#0405000000000000
(1611458285.743760) can0 09F201EC#E01A002800FFFF1F
(1611458285.744308) can0 09F201EC#E172CE04000060D8
(1611458285.744878) can0 09F201EC#E20300FFFFFFFFFF
(1611458285.745476) can0 09F201EC#E3000000007EFFFF
(1611458285.763777) can0 09F200EC#00000000007FFFFF
(1611458285.802275) can0 1DF01104#E803700100000000
(1611458285.802854) can0 1DF20D04#040040FFFFFFFFFF
(1611458285.803425) can0 1DFDA404#045551FFFFFFFFFF
(1611458285.843755) can0 15F209EC#E00900B700FF7FFF
(1611458285.844326) can0 15F209EC#E17FFF7FFFFFFFFF
(1611458285.863768) can0 09F200EC#00000000007FFFFF
(1611458285.963765) can0 09F200EC#00000000007FFFFF
(1611458286.000119) can0 1DF21C04#0406000000000000
(1611458286.063772) can0 09F200EC#00000000007FFFFF
(1611458286.163748) can0 09F200EC#00000000007FFFFF
(1611458286.243735) can0 09F201EC#001A002800FFFF1F
(1611458286.244302) can0 09F201EC#0172CE04000060D8
(1611458286.244873) can0 09F201EC#020300FFFFFFFFFF
(1611458286.245502) can0 09F201EC#03000000007EFFFF
(1611458286.262750) can0 09F200EC#00000000007FFFFF
(1611458286.300734) can0 1DF21C04#0407000000000000
(1611458286.363744) can0 09F200EC#00000000007FFFFF
(1611458286.463737) can0 09F200EC#00000000007FFFFF
(1611458286.563733) can0 09F200EC#00000000007FFFFF
(1611458286.592574) can0 1DF20D01#0151400000000000
(1611458286.593140) can0 1DF01100#E803740100000000
(1611458286.593704) can0 1DF01101#E803740100000000
(1611458286.594288) can0 1DF20D00#0015500000000000
(1611458286.601341) can0 1DF21C04#0400000000000000
(1611458286.663722) can0 09F200EC#00000000007FFFFF
(1611458286.695990) can0 1DFD0906#066A065B00000000
(1611458286.696511) can0 1DFD0806#066A06C700000000
(1611458286.716911) can0 1DFD0901#0165014B00000000
(1611458286.717472) can0 1DFD0801#016501E500000000
(1611458286.743691) can0 09F201EC#201A002800FFFF1F
(1611458286.744246) can0 09F201EC#2172CE04000060D8
(1611458286.744831) can0 09F201EC#220300FFFFFFFFFF
(1611458286.745434) can0 09F201EC#23000000007EFFFF
(1611458286.763707) can0 09F200EC#00000000007FFFFF
(1611458286.804323) can0 1DF01104#E803710100000000
(1611458286.804907) can0 1DF20D04#040040FFFFFFFFFF
(1611458286.805478) can0 1DFDA404#045551FFFFFFFFFF
(1611458286.843692) can0 15F209EC#000900B700FF7FFF
(1611458286.844277) can0 15F209EC#017FFF7FFFFFFFFF
(1611458286.863697) can0 09F200EC#00000000007FFFFF
(1611458286.901993) can0 1DF21C04#0401000000000000
(1611458286.964023) can0 09F200EC#00000000007FFFFF
(1611458287.063683) can0 09F200EC#00000000007FFFFF
(1611458287.163675) can0 09F200EC#00000000007FFFFF
(1611458287.202578) can0 1DF21C04#0402000000000000
(1611458287.243669) can0 09F201EC#401A002800FFFF1F
(1611458287.244212) can0 09F201EC#4172CE04000060D8
(1611458287.244782) can0 09F201EC#420300FFFFFFFFFF
(1611458287.245363) can0 09F201EC#43000000007EFFFF
(1611458287.262672) can0 09F200EC#00000000007FFFFF
(1611458287.363664) can0 09F200EC#00000000007FFFFF
(1611458287.463668) can0 09F200EC#00000000007FFFFF
(1611458287.503185) can0 1DF21C04#0403000000000000
(1611458287.563650) can0 09F200EC#00000000007FFFFF
(1611458287.594599) can0 1DF20D01#0151400000000000
(1611458287.595163) can0 1DF01100#E803750100000000
(1611458287.595728) can0 1DF01101#E803750100000000
(1611458287.596322) can0 1DF20D00#0015500000000000
(1611458287.663641) can0 09F200EC#00000000007FFFFF
(1611458287.743635) can0 09F201EC#601A002800FFFF1F
(1611458287.744184) can0 09F201EC#6172CE04000060D8
(1611458287.744752) can0 09F201EC#620300FFFFFFFFFF
(1611458287.745377) can0 09F201EC#63000000007EFFFF
(1611458287.763628) can0 09F200EC#00000000007FFFFF
(1611458287.798201) can0 1DFD0906#066A065B00000000
(1611458287.798748) can0 1DFD0806#066A06C700000000
(1611458287.806376) can0 1DF01104#E803720100000000
(1611458287.806955) can0 1DF20D04#040040FFFFFFFFFF
(1611458287.807532) can0 1DF21C04#0404000000000000
(1611458287.808106) can0 1DFDA404#045551FFFFFFFFFF
(1611458287.819143) can0 1DFD0901#0165014B00000000
(1611458287.819708) can0 1DFD0801#016501E500000000
(1611458287.843625) can0 15F209EC#200900B700FF7FFF
(1611458287.844191) can0 15F209EC#217FFF7FFFFFFFFF
(1611458287.863630) can0 09F200EC#00000000007FFFFF
(1611458287.963638) can0 09F200EC#00000000007FFFFF
(1611458288.063621) can0 09F200EC#00000000007FFFFF
(1611458288.104419) can0 1DF21C04#0405000000000000
(1611458288.163596) can0 09F200EC#00000000007FFFFF
(1611458288.243605) can0 09F201EC#801A002800FFFF1F
(1611458288.244153) can0 09F201EC#8172CE04000060D8
(1611458288.244729) can0 09F201EC#820300FFFFFFFFFF
(1611458288.245314) can0 09F201EC#83000000007EFFFF
(1611458288.262605) can0 09F200EC#00000000007FFFFF
(1611458288.363597) can0 09F200EC#00000000007FFFFF
(1611458288.405027) can0 1DF21C04#0406000000000000
(1611458288.463606) can0 09F200EC#00000000007FFFFF
(1611458288.563585) can0 09F200EC#00000000007FFFFF
(1611458288.596645) can0 1DF20D01#0151400000000000
(1611458288.597202) can0 1DF01100#E803760100000000
(1611458288.597778) can0 1DF01101#E803760100000000
(1611458288.598366) can0 1DF20D00#0015500000000000
(1611458288.663574) can0 09F200EC#00000000007FFFFF
(1611458288.705642) can0 1DF21C04#0407000000000000
(1611458288.743562) can0 09F201EC#A01A002800FFFF1F
(1611458288.744103) can0 09F201EC#A172CE04000060D8
(1611458288.744677) can0 09F201EC#A20300FFFFFFFFFF
(1611458288.745284) can0 09F201EC#A3000000007EFFFF
(1611458288.763572) can0 09F200EC#00000000007FFFFF
(1611458288.808419) can0 1DF01104#E803730100000000
(1611458288.809000) can0 1DF20D04#040040FFFFFFFFFF
(1611458288.809572) can0 1DFDA404#045551FFFFFFFFFF
(1611458288.843540) can0 15F209EC#400900B700FF7FFF
(1611458288.844110) can0 15F209EC#417FFF7FFFFFFFFF
(1611458288.863568) can0 09F200EC#00000000007FFFFF
(1611458288.900420) can0 1DFD0906#066A065B00000000
(1611458288.900979) can0 1DFD0806#066A06C700000000
(1611458288.921378) can0 1DFD0901#0165014B00000000
(1611458288.921948) can0 1DFD0801#016501E500000000
(1611458288.963552) can0 09F200EC#00000000007FFFFF
(1611458289.006273) can0 1DF21C04#0400000000000000
(1611458289.063549) can0 09F200EC#00000000007FFFFF
(1611458289.163550) can0 09F200EC#00000000007FFFFF
(1611458289.243505) can0 09F201EC#C01A002800FFFF1F
(1611458289.244061) can0 09F201EC#C172CE04000060D8
(1611458289.244635) can0 09F201EC#C20300FFFFFFFFFF
(1611458289.245212) can0 09F201EC#C3000000007EFFFF
(1611458289.262521) can0 09F200EC#00000000007FFFFF
(1611458289.306879) can0 1DF21C04#0401000000000000
(1611458289.363519) can0 09F200EC#00000000007FFFFF
(1611458289.463521) can0 09F200EC#00000000007FFFFF
(1611458289.563521) can0 09F200EC#00000000007FFFFF
(1611458289.598654) can0 1DF20D01#0151400000000000
(1611458289.599224) can0 1DF01100#E803770100000000
(1611458289.599783) can0 1DF01101#E803770100000000
(1611458289.600376) can0 1DF20D00#0015500000000000
(1611458289.607498) can0 1DF21C04#0402000000000000
(1611458289.663497) can0 09F200EC#00000000007FFFFF
(1611458289.743488) can0 09F201EC#E01A002800FFFF1F
(1611458289.744031) can0 09F201EC#E172CE04000060D8
(1611458289.744604) can0 09F201EC#E20300FFFFFFFFFF
(1611458289.745202) can0 09F201EC#E3000000007EFFFF
(1611458289.763495) can0 09F200EC#00000000007FFFFF
(1611458289.810497) can0 1DF01104#E803740100000000
(1611458289.811060) can0 1DF20D04#040040FFFFFFFFFF
(1611458289.811645) can0 1DFDA404#045551FFFFFFFFFF
(1611458289.843467) can0 15F209EC#600900B700FF7FFF
(1611458289.844031) can0 15F209EC#617FFF7FFFFFFFFF
(1611458289.863545) can0 09F200EC#00000000007FFFFF
(1611458289.908114) can0 1DF21C04#0403000000000000
(1611458289.963486) can0 09F200EC#00000000007FFFFF
(1611458290.002660) can0 1DFD0906#066A065B00000000
(1611458290.003209) can0 1DFD0806#066A06C700000000
(1611458290.023613) can0 1DFD0901#0165014B00000000
(1611458290.024178) can0 1DFD0801#016501E500000000
(1611458290.063469) can0 09F200EC#00000000007FFFFF
(1611458290.163476) can0 09F200EC#00000000007FFFFF
(1611458290.208790) can0 1DF21C04#0404000000000000
(1611458290.243443) can0 09F201EC#001A002800FFFF1F
(1611458290.244016) can0 09F201EC#0172CE04000060D8
(1611458290.244579) can0 09F201EC#020300FFFFFFFFFF
(1611458290.245163) can0 09F201EC#03000000007EFFFF
(1611458290.262455) can0 09F200EC#00000000007FFFFF
(1611458290.363462) can0 09F200EC#00000000007FFFFF
(1611458290.463448) can0 09F200EC#00000000007FFFFF
(1611458290.509352) can0 1DF21C04#0405000000000000
(1611458290.563444) can0 09F200EC#00000000007FFFFF
(1611458290.600683) can0 1DF20D01#0151400000000000
(1611458290.601245) can0 1DF01100#E803780100000000
(1611458290.601823) can0 1DF01101#E803780100000000
(1611458290.602415) can0 1DF20D00#0015500000000000
(1611458290.663431) can0 09F200EC#00000000007FFFFF
(1611458290.743407) can0 09F201EC#201A002800FFFF1F
(1611458290.743963) can0 09F201EC#2172CE04000060D8
(1611458290.744545) can0 09F201EC#220300FFFFFFFFFF
(1611458290.745149) can0 09F201EC#23000000007EFFFF
(1611458290.763414) can0 09F200EC#00000000007FFFFF
(1611458290.812519) can0 1DF01104#E803750100000000
(1611458290.813095) can0 1DF20D04#040040FFFFFFFFFF
(1611458290.813676) can0 1DF21C04#0406000000000000
(1611458290.814255) can0 1DFDA404#045551FFFFFFFFFF
(1611458290.843393) can0 15F209EC#800900B700FF7FFF
(1611458290.843968) can0 15F209EC#817FFF7FFFFFFFFF
(1611458290.863424) can0 09F200EC#00000000007FFFFF
(1611458290.963412) can0 09F200EC#00000000007FFFFF
(1611458291.063405) can0 09F200EC#00000000007FFFFF
(1611458291.104881) can0 1DFD0906#066A065B00000000
(1611458291.105438) can0 1DFD0806#066A06C700000000
(1611458291.110569) can0 1DF21C04#0407000000000000
(1611458291.125851) can0 1DFD0901#0165014B00000000
(1611458291.126436) can0 1DFD0801#016501E500000000
(1611458291.163388) can0 09F200EC#00000000007FFFFF
(1611458291.243389) can0 09F201EC#401A002800FFFF1F
(1611458291.243927) can0 09F201EC#4172CE04000060D8
(1611458291.244501) can0 09F201EC#420300FFFFFFFFFF
(1611458291.245077) can0 09F201EC#43000000007EFFFF
(1611458291.262386) can0 09F200EC#00000000007FFFFF
(1611458291.363373) can0 09F200EC#00000000007FFFFF
(1611458291.411187) can0 1DF21C04#0400000000000000
(1611458291.463372) can0 09F200EC#00000000007FFFFF
(1611458291.563365) can0 09F200EC#00000000007FFFFF
(1611458291.602723) can0 1DF20D01#0151400000000000
(1611458291.603290) can0 1DF01100#E803790100000000
(1611458291.603856) can0 1DF01101#E803790100000000
(1611458291.604438) can0 1DF20D00#0015500000000000
(1611458291.663350) can0 09F200EC#00000000007FFFFF
(1611458291.711797) can0 1DF21C04#0401000000000000
(1611458291.743338) can0 09F201EC#601A002800FFFF1F
(1611458291.743882) can0 09F201EC#6172CE04000060D8
(1611458291.744455) can0 09F201EC#620300FFFFFFFFFF
(1611458291.745083) can0 09F201EC#63000000007EFFFF
(1611458291.763339) can0 09F200EC#00000000007FFFFF
(1611458291.814563) can0 1DF01104#E803760100000000
(1611458291.815142) can0 1DF20D04#040040FFFFFFFFFF
(1611458291.815720) can0 1DFDA404#045551FFFFFFFFFF
(1611458291.843320) can0 15F209EC#A00900B700FF7FFF
(1611458291.843891) can0 15F209EC#A17FFF7FFFFFFFFF
(1611458291.863337) can0 09F200EC#00000000007FFFFF
(1611458291.963348) can0 09F200EC#00000000007FFFFF
(1611458292.012422) can0 1DF21C04#0402000000000000
(1611458292.063321) can0 09F200EC#00000000007FFFFF
(1611458292.163318) can0 09F200EC#00000000007FFFFF
(1611458292.207118) can0 1DFD0906#066A065B00000000
(1611458292.207669) can0 1DFD0806#066A06C700000000
(1611458292.228090) can0 1DFD0901#0165014B00000000
(1611458292.228645) can0 1DFD0801#016501E500000000
(1611458292.243303) can0 09F201EC#801A002800FFFF1F
(1611458292.243856) can0 09F201EC#8172CE04000060D8
